#  GHZ   S   RI   R     50.00
! freq[Hz]                re:S11                  im:S11                  re:S12                  im:S12                  re:S13                  im:S13                  re:S14                  im:S14
!                         re:S21                  im:S21                  re:S22                  im:S22                  re:S23                  im:S23                  re:S24                  im:S24
!                         re:S31                  im:S31                  re:S32                  im:S32                  re:S33                  im:S33                  re:S34                  im:S34
!                         re:S41                  im:S41                  re:S42                  im:S42                  re:S43                  im:S43                  re:S44                  im:S44
!
1.0	-0.5991191864013672	0.22128139436244965	0	0	0	0	0	0	
0.23956741392612457	-0.36006999015808105	0	0	0	0	0	0	
0.1311354637145996	-0.49160903692245483	0	0	0	0	0	0	
0.20682844519615173	-0.38432908058166504	0	0	0	0	0	0	
1.1	-0.5894849300384521	0.258495569229126	0	0	0	0	0	0	
0.1958162635564804	-0.3724091053009033	0	0	0	0	0	0	
0.0716736912727356	-0.5032973289489746	0	0	0	0	0	0	
0.1729932278394699	-0.39206433296203613	0	0	0	0	0	0	
1.2	-0.5715982913970947	0.30121663212776184	0	0	0	0	0	0	
0.16056989133358002	-0.3790775537490845	0	0	0	0	0	0	
0.016222838312387466	-0.5096303224563599	0	0	0	0	0	0	
0.1497412472963333	-0.3952587842941284	0	0	0	0	0	0	
1.3	-0.54338538646698	0.35535314679145813	0	0	0	0	0	0	
0.11699722707271576	-0.38185393810272217	0	0	0	0	0	0	
-0.050068195909261703	-0.5118669271469116	0	0	0	0	0	0	
0.1212191954255104	-0.39556825160980225	0	0	0	0	0	0	
1.4	-0.501264214515686	0.4069952964782715	0	0	0	0	0	0	
0.06961800158023834	-0.3796083927154541	0	0	0	0	0	0	
-0.13300806283950806	-0.5035278797149658	0	0	0	0	0	0	
0.0820324495434761	-0.39562588930130005	0	0	0	0	0	0	
1.5	-0.4410029947757721	0.4518943727016449	0	0	0	0	0	0	
0.02468879707157612	-0.37712162733078003	0	0	0	0	0	0	
-0.22230136394500732	-0.485726535320282	0	0	0	0	0	0	
0.037360161542892456	-0.39450591802597046	0	0	0	0	0	0	
1.6	-0.3531319200992584	0.49845194816589355	0	0	0	0	0	0	
-0.023770643398165703	-0.36814606189727783	0	0	0	0	0	0	
-0.3162339925765991	-0.4687960743904114	0	0	0	0	0	0	
0.0007748473435640335	-0.38846808671951294	0	0	0	0	0	0	
1.7	-0.2595804035663605	0.5271173715591431	0	0	0	0	0	0	
-0.07531978189945221	-0.3462638556957245	0	0	0	0	0	0	
-0.4224684536457062	-0.4257669150829315	0	0	0	0	0	0	
-0.03095122240483761	-0.3889191150665283	0	0	0	0	0	0	
1.8	-0.15376968681812286	0.5296012759208679	0	0	0	0	0	0	
-0.1344655454158783	-0.32478833198547363	0	0	0	0	0	0	
-0.5229194164276123	-0.36214983463287354	0	0	0	0	0	0	
-0.0656258836388588	-0.37707382440567017	0	0	0	0	0	0	
1.9	-0.04406919330358505	0.4998375475406647	0	0	0	0	0	0	
-0.19112761318683624	-0.2981061339378357	0	0	0	0	0	0	
-0.6120320558547974	-0.2685641944408417	0	0	0	0	0	0	
-0.08199950307607651	-0.37969470024108887	0	0	0	0	0	0	
2.0	0.07262549549341202	0.42229291796684265	0	0	0	0	0	0	
-0.21975742280483246	-0.24522310495376587	0	0	0	0	0	0	
-0.7101057767868042	-0.11799561977386475	0	0	0	0	0	0	
-0.128292053937912	-0.3979191780090332	0	0	0	0	0	0	
2.1	0.17085056006908417	0.2748177945613861	0	0	0	0	0	0	
-0.2372017204761505	-0.16218480467796326	0	0	0	0	0	0	
-0.7723492980003357	0.09992754459381104	0	0	0	0	0	0	
-0.19520574808120728	-0.4429609477519989	0	0	0	0	0	0	
2.2	0.17305199801921844	0.06083301082253456	0	0	0	0	0	0	
-0.20391102135181427	-0.1108861044049263	0	0	0	0	0	0	
-0.7109892964363098	0.39398741722106934	0	0	0	0	0	0	
-0.31516197323799133	-0.3914511203765869	0	0	0	0	0	0	
2.3	0.02489400841295719	-0.16953948140144348	0	0	0	0	0	0	
-0.1321456879377365	-0.13088878989219666	0	0	0	0	0	0	
-0.47323548793792725	0.6452690362930298	0	0	0	0	0	0	
-0.4334075450897217	-0.3213678002357483	0	0	0	0	0	0	
2.4	-0.2020251601934433	-0.20432798564434052	0	0	0	0	0	0	
-0.13637202978134155	-0.21264535188674927	0	0	0	0	0	0	
-0.1293340027332306	0.7028175592422485	0	0	0	0	0	0	
-0.5391058325767517	-0.1879264861345291	0	0	0	0	0	0	
2.5	-0.3406620919704437	-0.11423872411251068	0	0	0	0	0	0	
-0.28128623962402344	-0.21265101432800293	0	0	0	0	0	0	
0.19623565673828125	0.5358469486236572	0	0	0	0	0	0	
-0.5645661354064941	-0.0060120392590761185	0	0	0	0	0	0	
2.6	-0.43629637360572815	-0.16472072899341583	0	0	0	0	0	0	
-0.3681332767009735	0.021934963762760162	0	0	0	0	0	0	
0.35993391275405884	0.15551014244556427	0	0	0	0	0	0	
-0.5072709321975708	0.251931756734848	0	0	0	0	0	0	
2.7	-0.7495026588439941	-0.07919637858867645	0	0	0	0	0	0	
-0.1376795768737793	0.20049414038658142	0	0	0	0	0	0	
0.13255470991134644	-0.0879909098148346	0	0	0	0	0	0	
-0.15825378894805908	0.3739318549633026	0	0	0	0	0	0	
2.8	-0.8754135370254517	0.26241812109947205	0	0	0	0	0	0	
-0.013894287869334221	0.09758342057466507	0	0	0	0	0	0	
-0.008357133716344833	-0.03772115334868431	0	0	0	0	0	0	
0.04059641808271408	0.18797613680362701	0	0	0	0	0	0	
2.9	-0.7922564744949341	0.517822265625	0	0	0	0	0	0	
-0.0019360913429409266	0.018501468002796173	0	0	0	0	0	0	
-0.032054122537374496	0.008913669735193253	0	0	0	0	0	0	
0.046397916972637177	0.05331524461507797	0	0	0	0	0	0	
3.0	-0.6869879961013794	0.6595268249511719	0	0	0	0	0	0	
-0.009291661903262138	0.009007401764392853	0	0	0	0	0	0	
-0.031077202409505844	0.01534612849354744	0	0	0	0	0	0	
0.01836525835096836	0.004708407446742058	0	0	0	0	0	0	
3.1	-0.5470857620239258	0.7820847630500793	0	0	0	0	0	0	
-0.011347515508532524	0.012225635349750519	0	0	0	0	0	0	
-0.028795167803764343	0.01780364289879799	0	0	0	0	0	0	
-0.0058412011712789536	-0.023621318861842155	0	0	0	0	0	0	
3.2	-0.41211292147636414	0.8560202121734619	0	0	0	0	0	0	
-0.0009860529098659754	0.01691771298646927	0	0	0	0	0	0	
-0.02897954359650612	0.0111849345266819	0	0	0	0	0	0	
-0.012673025950789452	-0.03746189922094345	0	0	0	0	0	0	
3.3	-0.26042142510414124	0.9285904169082642	0	0	0	0	0	0	
0.04519353806972504	0.011620588600635529	0	0	0	0	0	0	
-0.010868247598409653	0.009533945471048355	0	0	0	0	0	0	
0.012663239613175392	-0.03895920515060425	0	0	0	0	0	0	
3.4	-0.03755383938550949	0.9480457901954651	0	0	0	0	0	0	
0.11811678111553192	-0.008369021117687225	0	0	0	0	0	0	
0.008474845439195633	-0.0032349489629268646	0	0	0	0	0	0	
0.072067491710186	-0.06175720691680908	0	0	0	0	0	0	
3.5	0.16670219600200653	0.9062363505363464	0	0	0	0	0	0	
0.1920754760503769	-0.04750817269086838	0	0	0	0	0	0	
0.03340377286076546	-0.03749680146574974	0	0	0	0	0	0	
0.1435689926147461	-0.11432810127735138	0	0	0	0	0	0	
3.6	0.3234693109989166	0.8438934683799744	0	0	0	0	0	0	
0.24932144582271576	-0.10524039715528488	0	0	0	0	0	0	
0.05414168909192085	-0.09183749556541443	0	0	0	0	0	0	
0.19604140520095825	-0.16824953258037567	0	0	0	0	0	0	
3.7	0.4385586678981781	0.6977134943008423	0	0	0	0	0	0	
0.27059316635131836	-0.26550835371017456	0	0	0	0	0	0	
0.03745866194367409	-0.2378329634666443	0	0	0	0	0	0	
0.16217416524887085	-0.2982760965824127	0	0	0	0	0	0	
3.8	0.42673006653785706	0.5280793309211731	0	0	0	0	0	0	
0.14523611962795258	-0.4494158625602722	0	0	0	0	0	0	
-0.11175540089607239	-0.3546373248100281	0	0	0	0	0	0	
0.07193546742200851	-0.42970168590545654	0	0	0	0	0	0	
3.9	0.35016998648643494	0.4299613833427429	0	0	0	0	0	0	
-0.020357443019747734	-0.4854813814163208	0	0	0	0	0	0	
-0.3041824996471405	-0.36031925678253174	0	0	0	0	0	0	
-0.09654176980257034	-0.45973384380340576	0	0	0	0	0	0	
4.0	0.2878560721874237	0.42286789417266846	0	0	0	0	0	0	
-0.16231943666934967	-0.46785300970077515	0	0	0	0	0	0	
-0.4539030194282532	-0.28243759274482727	0	0	0	0	0	0	
-0.25639092922210693	-0.3945969343185425	0	0	0	0	0	0	
4.1	0.2831285893917084	0.42463114857673645	0	0	0	0	0	0	
-0.2646288275718689	-0.3932345509529114	0	0	0	0	0	0	
-0.5553614497184753	-0.13555926084518433	0	0	0	0	0	0	
-0.3728720545768738	-0.30169665813446045	0	0	0	0	0	0	
4.2	0.330440491437912	0.39776334166526794	0	0	0	0	0	0	
-0.30626940727233887	-0.3189677596092224	0	0	0	0	0	0	
-0.592769205570221	-0.006544914096593857	0	0	0	0	0	0	
-0.38778457045555115	-0.2517709732055664	0	0	0	0	0	0	
4.3	0.3843691647052765	0.3558376133441925	0	0	0	0	0	0	
-0.3407548666000366	-0.26171374320983887	0	0	0	0	0	0	
-0.5987300276756287	0.11163666844367981	0	0	0	0	0	0	
-0.37603139877319336	-0.18558184802532196	0	0	0	0	0	0	
4.4	0.4256422221660614	0.30115166306495667	0	0	0	0	0	0	
-0.37722092866897583	-0.21037238836288452	0	0	0	0	0	0	
-0.6008468270301819	0.24798178672790527	0	0	0	0	0	0	
-0.36964845657348633	-0.12215153872966766	0	0	0	0	0	0	
4.5	0.4450697600841522	0.20113028585910797	0	0	0	0	0	0	
-0.39595532417297363	-0.14009034633636475	0	0	0	0	0	0	
-0.5699634552001953	0.40260976552963257	0	0	0	0	0	0	
-0.38664665818214417	-0.09014604985713959	0	0	0	0	0	0	
4.6	0.43355223536491394	0.11367179453372955	0	0	0	0	0	0	
-0.4078676700592041	-0.09668736904859543	0	0	0	0	0	0	
-0.5011818408966064	0.5297017097473145	0	0	0	0	0	0	
-0.3786395192146301	-0.06903938949108124	0	0	0	0	0	0	
4.7	0.4127902686595917	0.03209303691983223	0	0	0	0	0	0	
-0.41217589378356934	-0.04476725310087204	0	0	0	0	0	0	
-0.4156630039215088	0.6386964917182922	0	0	0	0	0	0	
-0.3544033169746399	-0.06770835816860199	0	0	0	0	0	0	
4.8	0.34574803709983826	-0.06769432127475739	0	0	0	0	0	0	
-0.38599252700805664	0.012237973511219025	0	0	0	0	0	0	
-0.29169365763664246	0.7367019057273865	0	0	0	0	0	0	
-0.35501396656036377	-0.08394204080104828	0	0	0	0	0	0	
4.9	0.22409246861934662	-0.11028869450092316	0	0	0	0	0	0	
-0.3325478434562683	0.051074035465717316	0	0	0	0	0	0	
-0.1182481050491333	0.7870303392410278	0	0	0	0	0	0	
-0.40462934970855713	-0.042985960841178894	0	0	0	0	0	0	
5.0	0.09485945850610733	-0.12379561364650726	0	0	0	0	0	0	
-0.28664344549179077	0.08254081755876541	0	0	0	0	0	0	
0.06193939223885536	0.7996059060096741	0	0	0	0	0	0	
-0.45387348532676697	-0.008115099743008614	0	0	0	0	0	0	
5.1	-0.0074087586253881454	-0.11797498166561127	0	0	0	0	0	0	
-0.26175886392593384	0.08744866400957108	0	0	0	0	0	0	
0.23138722777366638	0.7738734483718872	0	0	0	0	0	0	
-0.4883236885070801	0.03584675490856171	0	0	0	0	0	0	
5.2	-0.1226140484213829	-0.058680664747953415	0	0	0	0	0	0	
-0.23918522894382477	0.06193900853395462	0	0	0	0	0	0	
0.38833463191986084	0.6840166449546814	0	0	0	0	0	0	
-0.5060473680496216	0.1487022191286087	0	0	0	0	0	0	
5.3	-0.20147444307804108	0.05317579582333565	0	0	0	0	0	0	
-0.2233092337846756	0.026555664837360382	0	0	0	0	0	0	
0.5321267247200012	0.5717177987098694	0	0	0	0	0	0	
-0.46958601474761963	0.24956418573856354	0	0	0	0	0	0	
5.4	-0.2334526926279068	0.17616842687129974	0	0	0	0	0	0	
-0.24511076509952545	0.029609687626361847	0	0	0	0	0	0	
0.6218716502189636	0.43585482239723206	0	0	0	0	0	0	
-0.3995841145515442	0.29514771699905396	0	0	0	0	0	0	
5.5	-0.23145748674869537	0.2783430516719818	0	0	0	0	0	0	
-0.2791215777397156	0.05030078440904617	0	0	0	0	0	0	
0.6606244444847107	0.3138800263404846	0	0	0	0	0	0	
-0.328799307346344	0.33487117290496826	0	0	0	0	0	0	
5.6	-0.1957646757364273	0.3814818561077118	0	0	0	0	0	0	
-0.2969937324523926	0.07707531005144119	0	0	0	0	0	0	
0.6621192097663879	0.20267076790332794	0	0	0	0	0	0	
-0.2637854218482971	0.35127246379852295	0	0	0	0	0	0	
5.7	-0.14789582788944244	0.46864432096481323	0	0	0	0	0	0	
-0.29266753792762756	0.10774988681077957	0	0	0	0	0	0	
0.6268977522850037	0.09006968140602112	0	0	0	0	0	0	
-0.2037888765335083	0.37210214138031006	0	0	0	0	0	0	
5.8	-0.09805848449468613	0.4986766278743744	0	0	0	0	0	0	
-0.28508856892585754	0.15697592496871948	0	0	0	0	0	0	
0.6005359292030334	0.004294279962778091	0	0	0	0	0	0	
-0.1550896167755127	0.3942195773124695	0	0	0	0	0	0	
5.9	-0.05088617652654648	0.5186977386474609	0	0	0	0	0	0	
-0.27898716926574707	0.20766425132751465	0	0	0	0	0	0	
0.5805561542510986	-0.08258065581321716	0	0	0	0	0	0	
-0.11501211673021317	0.4167335629463196	0	0	0	0	0	0	
6.0	-0.004622956737875938	0.5209118127822876	0	0	0	0	0	0	
-0.2609740197658539	0.24347996711730957	0	0	0	0	0	0	
0.5595102906227112	-0.15185081958770752	0	0	0	0	0	0	
-0.08207065612077713	0.4375115633010864	0	0	0	0	0	0	