#  GHZ   S   RI   R     50.00
! freq[Hz]                re:S11                  im:S11                  re:S12                  im:S12                  re:S13                  im:S13                  re:S14                  im:S14
!                         re:S21                  im:S21                  re:S22                  im:S22                  re:S23                  im:S23                  re:S24                  im:S24
!                         re:S31                  im:S31                  re:S32                  im:S32                  re:S33                  im:S33                  re:S34                  im:S34
!                         re:S41                  im:S41                  re:S42                  im:S42                  re:S43                  im:S43                  re:S44                  im:S44
!
2.0	-0.23744863271713257	0.1585748791694641	0	0	0	0	0	0	
0.3169764578342438	0.5730642080307007	0	0	0	0	0	0	
0.26671358942985535	0.15294185280799866	0	0	0	0	0	0	
-0.3534296452999115	-0.3121873438358307	0	0	0	0	0	0	
2.1	-0.16129299998283386	0.18055832386016846	0	0	0	0	0	0	
0.41522762179374695	0.5007677674293518	0	0	0	0	0	0	
0.3419952690601349	0.08766975998878479	0	0	0	0	0	0	
-0.4143267571926117	-0.20238299667835236	0	0	0	0	0	0	
2.2	-0.05874094367027283	0.18376463651657104	0	0	0	0	0	0	
0.6076681017875671	0.4173007011413574	0	0	0	0	0	0	
0.38265979290008545	-0.0025033243000507355	0	0	0	0	0	0	
-0.3977512717247009	-0.11926047503948212	0	0	0	0	0	0	
2.3	0.034953080117702484	0.1415717899799347	0	0	0	0	0	0	
0.760367751121521	0.31797271966934204	0	0	0	0	0	0	
0.38742613792419434	-0.11620983481407166	0	0	0	0	0	0	
-0.27116745710372925	-0.08826754987239838	0	0	0	0	0	0	
2.4	0.07805349677801132	0.08258641511201859	0	0	0	0	0	0	
0.8398392200469971	0.17873041331768036	0	0	0	0	0	0	
0.4090041220188141	-0.26595550775527954	0	0	0	0	0	0	
-0.11350741982460022	-0.03016047179698944	0	0	0	0	0	0	
2.5	0.024356983602046967	-0.016655333340168	0	0	0	0	0	0	
0.8489616513252258	-0.07381561398506165	0	0	0	0	0	0	
0.34699568152427673	-0.42447927594184875	0	0	0	0	0	0	
0.04608067125082016	0.003693602979183197	0	0	0	0	0	0	
2.6	-0.1029680147767067	-0.037250690162181854	0	0	0	0	0	0	
0.7983583211898804	-0.3587592840194702	0	0	0	0	0	0	
0.19855129718780518	-0.5220828652381897	0	0	0	0	0	0	
0.049637436866760254	-0.07562438398599625	0	0	0	0	0	0	
2.7	-0.22940212488174438	-0.08716096729040146	0	0	0	0	0	0	
0.5874536037445068	-0.5986053347587585	0	0	0	0	0	0	
0.09994704276323318	-0.48320820927619934	0	0	0	0	0	0	
0.04497293382883072	-0.22923500835895538	0	0	0	0	0	0	
2.8	-0.36667847633361816	-0.09176217764616013	0	0	0	0	0	0	
0.39070209860801697	-0.6353129148483276	0	0	0	0	0	0	
-0.05226878821849823	-0.4195076823234558	0	0	0	0	0	0	
0.011594407260417938	-0.31166067719459534	0	0	0	0	0	0	
2.9	-0.44024595618247986	0.03239638730883598	0	0	0	0	0	0	
0.2755163609981537	-0.6614893078804016	0	0	0	0	0	0	
-0.13331474363803864	-0.36022114753723145	0	0	0	0	0	0	
-0.03417900577187538	-0.33178821206092834	0	0	0	0	0	0	
3.0	-0.5276566743850708	0.15543274581432343	0	0	0	0	0	0	
0.1385321468114853	-0.6630622744560242	0	0	0	0	0	0	
-0.2341725081205368	-0.3158286511898041	0	0	0	0	0	0	
-0.10371190309524536	-0.348075270652771	0	0	0	0	0	0	