! Created Mon Sep 11 23:14:18 2023
# hz S ma R 50
! 4 Port Network Data from SP1.SP block
! freq  magS11  angS11  magS12  angS12  magS13  angS13  magS14  angS14  
!       magS21  angS21  magS22  angS22  magS23  angS23  magS24  angS24  
!       magS31  angS31  magS32  angS32  magS33  angS33  magS34  angS34  
!       magS41  angS41  magS42  angS42  magS43  angS43  magS44  angS44  
!     
1e+09       0.619502257         157.974672        0.427710349         -60.667171        0.492450827        -75.0939558        0.436464943        -63.0190295
                      0.427710349         -60.667171        0.624617637          157.50963        0.429101416        -62.8959843        0.492461516        -75.0978191
                      0.492450827        -75.0939558        0.429101416        -62.8959843        0.624626989         157.514629        0.427708989        -60.6655766
                      0.436464943        -63.0190295        0.492461516        -75.0978191        0.427708989        -60.6655766        0.619494696         157.972645

1.025e+09        0.62226926         156.921869        0.425128657        -62.0476061        0.493214133        -76.9302853        0.434153572        -64.4444848
                      0.425128657        -62.0476061        0.627613942         156.434443        0.426379672        -64.3031687        0.493225418        -76.9342677
                      0.493214133        -76.9302853        0.426379672        -64.3031687        0.627625323          156.43946        0.425127253        -62.0459741
                      0.434153572        -64.4444848        0.493225418        -76.9342677        0.425127253        -62.0459741        0.622261273         156.919772

1.05e+09       0.624888207         155.845457        0.422565119        -63.4231839         0.49409997        -78.7699824        0.431850171        -65.8621697
                      0.422565119        -63.4231839        0.630468551         155.335228        0.423650255        -65.7007814        0.494111874         -78.774086
                       0.49409997        -78.7699824        0.423650255        -65.7007814        0.630481458         155.340295        0.422563673        -63.4215149
                      0.431850171        -65.8621697        0.494111874         -78.774086        0.422563673        -63.4215149        0.624879773         155.843285

1.075e+09       0.627351339          154.74518        0.420023115        -64.7943793        0.495115496        -80.6138713        0.429556975        -67.2721336
                      0.420023115        -64.7943793        0.633174161         154.211719        0.420914769        -67.0887077        0.495128042        -80.6180985
                      0.495115496        -80.6138713        0.420914769        -67.0887077        0.633188169         154.216866         0.42002163        -64.7926738
                      0.429556975        -67.2721336        0.495128042        -80.6180985         0.42002163        -64.7926738        0.627342435          154.74293

1.1e+09       0.629650726         153.620699        0.417505946        -66.1617138        0.496268173        -82.4628344        0.427276139        -68.6744177
                      0.417505946        -66.1617138        0.635723333         153.063563        0.418174692        -68.4668074        0.496281386        -82.4671876
                      0.496268173        -82.4628344        0.418174692        -68.4668074        0.635738094          153.06882        0.417504426        -66.1599726
                      0.427276139        -68.6744177        0.496281386        -82.4671876        0.417504426        -66.1599726        0.629641327         153.618367

1.125e+09       0.631778196         152.471585        0.415016835        -67.5257603        0.497565801        -84.3178169        0.425009742        -70.0690522
                      0.415016835        -67.5257603        0.638108419         151.890317        0.415431392        -69.8349091        0.497579707        -84.3222985
                      0.497565801        -84.3178169        0.415431392        -69.8349091        0.638123655         151.895711        0.415015282        -67.5239841
                      0.425009742        -70.0690522        0.497579707        -84.3222985        0.415015282        -67.5239841        0.631768273         152.469167

1.15e+09       0.633725248         151.297312        0.412558922         -68.887147        0.499016551        -86.1798309        0.422759803        -71.4560525
                      0.412558922         -68.887147        0.640321483         150.691435        0.412686135         -71.192804        0.499031177        -86.1844437
                      0.499016551        -86.1798309        0.412686135         -71.192804        0.640336986         150.696993        0.412557341        -68.8853368
                      0.422759803        -71.4560525        0.499031177        -86.1844437        0.412557341        -68.8853368        0.633714771         151.294803

1.175e+09       0.635482973         150.097249        0.410135265        -70.2465631        0.500629006        -88.0499612        0.420528296        -72.8354152
                      0.410135265        -70.2465631        0.642354221         149.466268        0.409940102         -72.540239        0.500644379        -88.0547082
                      0.500629006        -88.0499612        0.409940102         -72.540239        0.642369844         149.472014         0.41013366        -70.2447198
                      0.420528296        -72.8354152        0.500644379        -88.0547082         0.41013366        -70.2447198        0.635471908         150.094646

1.2e+09       0.637041957         148.870655        0.407748832        -71.6047645        0.502412202        -89.9293714        0.418317169        -74.2071136
                      0.407748832        -71.6047645        0.644197867         148.214052        0.407194409        -73.8769086        0.502428352        -89.9342556
                      0.502412202        -89.9293714        0.407194409        -73.8769086        0.644213522         148.220006        0.407747208        -71.6028893
                      0.418317169        -74.2071136        0.502428352        -89.9342556        0.407747208        -71.6028893        0.637030269         148.867952

1.225e+09       0.638392178         147.616667        0.405402496        -72.9625813        0.504375674        -91.8193104        0.416128363        -75.5710924
                      0.405402496        -72.9625813        0.645843093         146.933897        0.404450134        -75.2024456        0.504392631        -91.8243351
                      0.504375674        -91.8193104        0.404450134        -75.2024456        0.645858745          146.94008        0.405400858        -72.9606756
                      0.416128363        -75.5710924        0.504392631        -91.8243351        0.405400858        -72.9606756        0.638379828          147.61386

1.25e+09       0.639522897         146.334294        0.403099022        -74.3209255        0.506529505        -93.7211205        0.413963846        -76.9272622
                      0.403099022        -74.3209255        0.647279899         145.624782        0.401708345        -76.5164111        0.506547302        -93.7262892
                      0.506529505        -93.7211205        0.401708345        -76.5164111        0.647295563         145.631211        0.403097375        -74.3189905
                      0.413963846        -76.9272622        0.506547302        -93.7262892        0.403097375        -74.3189905         0.63950984         146.331376

1.275e+09       0.640422525         145.022399        0.400841054        -75.6807998        0.508884377         -95.636246        0.411825641        -78.2754926
                      0.400841054        -75.6807998        0.648497493         144.285539        0.398970146        -77.8182827        0.508903047        -95.6415624
                      0.508884377         -95.636246        0.398970146        -77.8182827        0.648513223         144.292228        0.400839404        -75.6788373
                      0.411825641        -78.2754926        0.508903047        -95.6415624        0.400839404        -75.6788373        0.640408716         145.019365

1.3e+09       0.641078491         143.679692        0.398631092         -77.043309        0.511451629        -97.5662433        0.409715872        -79.6156051
                      0.398631092         -77.043309        0.649484152         142.914844        0.396236721        -79.1074405        0.511471206        -97.5717115
                      0.511451629        -97.5662433        0.396236721        -79.1074405        0.649500042         142.921805        0.398629445        -77.0413207
                      0.409715872        -79.6156051        0.511471206        -97.5717115        0.398629445        -77.0413207         0.64106388         143.676535

1.325e+09       0.641477082         142.304713        0.396471465        -78.4096709        0.514243314        -99.5127922        0.407636816        -80.9473645
                      0.396471465        -78.4096709        0.650227073         141.511197        0.393509403        -80.3831524        0.514263835        -99.5184164
                      0.514243314        -99.5127922        0.393509403        -80.3831524        0.650243246         141.518439        0.396469827         -78.407659
                      0.407636816        -80.9473645        0.514263835        -99.5184164        0.396469827         -78.407659        0.641461614         142.301427

1.35e+09       0.641603269         140.895814        0.394364292        -79.7812306        0.517272259        -101.477709        0.405590963        -82.2704695
                      0.394364292        -79.7812306        0.650712197         140.072908        0.390789753        -81.6445563        0.517293762        -101.483493
                      0.517272259        -101.477709        0.390789753        -81.6445563        0.650728805         140.080438        0.394362672        -79.7791974
                      0.405590963        -82.2704695        0.517293762        -101.483493        0.394362672        -79.7791974        0.641586885         140.892392

1.375e+09        0.64144051         139.451143        0.392311434        -81.1594758        0.520552137        -103.462959        0.403581101         -83.584542
                      0.392311434        -81.1594758        0.650924021         138.598078        0.388079659        -82.8906404        0.520574661        -103.468909
                      0.520552137        -103.462959        0.388079659        -82.8906404        0.650941233         138.605899        0.392309839        -81.1574238
                      0.403581101         -83.584542        0.520574661        -103.468909        0.392309839        -81.1574238        0.641423146         139.447576

1.4e+09       0.640970524         137.968616        0.390314433        -82.5460541        0.524097523        -105.470678        0.401610409        -84.8891155
                      0.390314433        -82.5460541        0.650845373         137.084572        0.385381468        -84.1202212         0.52412111        -105.476799
                      0.524097523        -105.470678        0.385381468        -84.1202212        0.650863375         137.092687        0.390312871        -82.5439862
                      0.401610409        -84.8891155         0.52412111        -105.476799        0.390312871        -82.5439862        0.640952111         137.964896

1.425e+09       0.640173037         136.445897        0.388374422        -83.9427931        0.527923968        -107.503184        0.399682587        -86.1836218
                      0.388374422        -83.9427931        0.650457163             135.53        0.382698141        -85.3319182        0.527948659        -107.509482
                      0.527923968        -107.503184        0.382698141        -85.3319182        0.650476148         135.538408        0.388372902        -83.9407125
                      0.399682587        -86.1836218        0.527948659        -107.509482        0.388372902        -83.9407125        0.640153499         136.442015

1.45e+09        0.63902549         134.880364        0.386492028        -85.3517228        0.532048061        -109.563005        0.397802003        -87.4673767
                      0.386492028        -85.3517228        0.649738093         133.931679        0.380033466        -86.5241268        0.532073899        -109.569485
                      0.532048061        -109.563005        0.380033466        -86.5241268        0.649758258         133.940376         0.38649056        -85.3496331
                      0.397802003        -87.4673767        0.532073899        -109.569485         0.38649056        -85.3496331        0.639004744          134.87631

1.475e+09       0.637502707         133.269078        0.384667233        -86.7751006        0.536487485          -111.6529        0.395973891         -88.739565
                      0.384667233        -86.7751006        0.648664326         132.286602        0.377392307        -87.6949881        0.536514517        -111.659569
                      0.536487485          -111.6529        0.377392307        -87.6949881        0.648685866         132.295585        0.384665827         -86.773006
                      0.395973891         -88.739565        0.536514517        -111.659569        0.384665827         -86.773006        0.637480664          133.26484

1.5e+09        0.63557651         131.608737        0.382899202        -88.2154398        0.541261079        -113.775885         0.39420459        -89.9992244
                      0.382899202        -88.2154398        0.647209108         130.591399        0.374780936         -88.842357        0.541289348         -113.78275
                      0.541261079        -113.775885        0.374780936         -88.842357        0.647232212         130.600662        0.382897869        -88.2133448
                       0.39420459        -89.9992244        0.541289348         -113.78275        0.382897869        -88.2133448        0.635553073         131.604305

1.525e+09       0.633215282         129.895638        0.381186065        -89.6755405        0.546388864        -115.935268        0.392501849        -91.2452298
                      0.381186065        -89.6755405        0.645342323         128.842286        0.372207444        -89.9637694        0.546418418        -115.942337
                      0.546388864        -115.935268        0.372207444        -89.9637694        0.645367167         128.851822        0.381184817        -89.6734503
                      0.392501849        -91.2452298        0.546418418        -115.942337        0.381184817        -89.6734503        0.633190345         129.890997

1.55e+09       0.630383461         128.125614        0.379524644        -91.1585243        0.551892069        -118.134682        0.390875204         -92.476279
                      0.379524644        -91.1585243        0.643029986         127.035014        0.369682263          -91.05641        0.551922953        -118.141962
                      0.551892069        -118.134682        0.369682263          -91.05641        0.643056733         127.044816        0.379523493        -91.1564447
                      0.390875204         -92.476279        0.551922953        -118.141962        0.379523493        -91.1564447        0.630356907          128.12075

1.575e+09       0.627040953         126.293974        0.377910096        -92.6678716         0.55779311        -120.378125        0.389336461        -93.6908813
                      0.377910096        -92.6678716        0.640233653         125.164803        0.367218821        -92.1170843         0.55782537        -120.385625
                       0.55779311        -120.378125        0.367218821        -92.1170843        0.640262445         125.174862        0.377909056        -92.6658092
                      0.389336461        -93.6908813         0.55782537        -120.385625        0.377909056        -92.6658092        0.627012656         126.288871

1.6e+09        0.62314247         124.395428        0.376335477        -94.2074615        0.564115533        -122.670007        0.387900286        -94.8873522
                      0.376335477        -94.2074615        0.636909741         123.226266         0.36483437        -93.1421991        0.564149212        -122.677736
                      0.564115533        -122.670007         0.36483437        -93.1421991        0.636940699         123.236575        0.376334562        -94.2054235
                      0.387900286        -94.8873522        0.564149212        -122.677736        0.376334562        -94.2054235        0.623112291         124.390068

1.625e+09       0.618636755         122.423997        0.374791181        -95.7816131        0.570883881        -125.015199        0.386584957        -96.0638187
                      0.374791181        -95.7816131        0.633008735         121.213323        0.362551023        -94.1277582        0.570919021        -125.023168
                      0.570883881        -125.015199        0.362551023        -94.1277582        0.633041958         121.223876        0.374790405         -95.779608
                      0.386584957        -96.0638187        0.570919021        -125.023168        0.374790405         -95.779608        0.618604542         122.418361

1.65e+09       0.613465703         120.372912        0.373264241        -97.3951275        0.578123481        -127.419092        0.385413289        -97.2182411
                      0.373264241        -97.3951275        0.628474285           119.1191        0.360397044        -95.0693859         0.57816012        -127.427311
                      0.578123481        -127.419092        0.360397044        -95.0693859        0.628509847         119.129893        0.373263621        -97.3931645
                      0.385413289        -97.2182411         0.57816012        -127.427311        0.373263621        -97.3931645        0.613431288         120.366976

1.675e+09       0.607563359         118.234482        0.371737451        -99.0533259        0.585860094        -129.887662        0.384413778        -98.3484605
                      0.371737451        -99.0533259        0.623242155         116.935801         0.35840844        -95.9623916        0.585898262        -129.896142
                      0.585860094        -129.887662         0.35840844        -95.9623916         0.62328011         116.946832        0.371737003        -99.0514159
                      0.384413778        -98.3484605        0.585898262        -129.896142        0.371737003        -99.0514159        0.607526561         118.228222

1.7e+09       0.600854789         115.999956        0.370188264        -100.762082        0.594119395        -132.427536        0.383622009         -99.452286
                      0.370188264        -100.762082        0.617239041         114.654569        0.356630911        -96.8019001        0.594159116        -132.436289
                      0.594119395        -132.427536        0.356630911        -96.8019001        0.617279422          114.66584        0.370188008        -100.760237
                      0.383622009         -99.452286        0.594159116        -132.436289        0.370188008        -100.760237        0.600815407         115.993343

1.725e+09       0.593254822         113.659335        0.368587438         -102.52784        0.602926217        -135.046073        0.383082344        -100.527638
                      0.368587438         -102.52784        0.610381223         112.265313        0.355122186        -97.5830766        0.602967504        -135.055113
