! Created Mon Sep 11 23:41:02 2023
# hz S ma R 50
! 4 Port Network Data from SP1.SP block
! freq  magS11  angS11  magS12  angS12  magS13  angS13  magS14  angS14  
!       magS21  angS21  magS22  angS22  magS23  angS23  magS24  angS24  
!       magS31  angS31  magS32  angS32  magS33  angS33  magS34  angS34  
!       magS41  angS41  magS42  angS42  magS43  angS43  magS44  angS44  
!     
2e+09       0.315010383         111.919891        0.639094442         93.6169658         0.49479428         51.3150109        0.494209002        -121.734309
                      0.639094442         93.6169658        0.412264589         102.438443        0.449344826        -130.995216         0.46514321         54.8326691
                       0.49479428         51.3150109        0.449344826        -130.995216        0.453371579         125.778923         0.58719605         161.713117
                      0.494209002        -121.734309         0.46514321         54.8326691         0.58719605         161.713117        0.437842087         137.513118

2.005e+09       0.313882936          111.54786        0.639987115         92.9920186        0.495231596         50.5649761        0.493300568        -122.386345
                      0.639987115         92.9920186        0.411835932         101.972432        0.447595103        -131.660935        0.465943013          54.100939
                      0.495231596         50.5649761        0.447595103        -131.660935        0.453078726         125.234788        0.588378923         161.301755
                      0.493300568        -122.386345        0.465943013          54.100939        0.588378923         161.301755        0.436403885         136.918143

2.01e+09       0.312725692         111.174572        0.640911367         92.3663875        0.495673518         49.8133928        0.492360585        -123.040624
                      0.640911367         92.3663875        0.411370168          101.50354        0.445815646        -132.328486        0.466752733         53.3669689
                      0.495673518         49.8133928        0.445815646        -132.328486        0.452739169         124.688811        0.589608085         160.889011
                      0.492360585        -123.040624        0.466752733         53.3669689        0.589608085         160.889011        0.434916967         136.318747

2.015e+09       0.311538356         110.800097        0.641867358         91.7400129        0.496119794         49.0602398        0.491388592        -123.697204
                      0.641867358         91.7400129        0.410866644         101.031768        0.444006168        -132.997935        0.467572205         52.6307207
                      0.496119794         49.0602398        0.444006168        -132.997935        0.452352462         124.141017         0.59088361         160.474785
                      0.491388592        -123.697204        0.467572205         52.6307207         0.59088361         160.474785        0.433380747          135.71484

2.02e+09       0.310320643         110.424505        0.642855242         91.1128347        0.496570166         48.3054965        0.490384111        -124.356146
                      0.642855242         91.1128347        0.410324707         100.557114        0.442166367         -133.66935        0.468401255         51.8921563
                      0.496570166         48.3054965        0.442166367         -133.66935        0.451918162         123.591428        0.592205562         160.058976
                      0.490384111        -124.356146        0.468401255         51.8921563        0.592205562         160.058976        0.431794631         135.106329

2.025e+09       0.309072283         110.047873         0.64387517         90.4847921        0.497024365         47.5491428        0.489346647        -125.017507
                       0.64387517         90.4847921          0.4097437         100.079583        0.440295923        -134.342799          0.4692397         51.1512373
                      0.497024365         47.5491428        0.440295923        -134.342799        0.451435828         123.040069        0.593573994         159.641485
                      0.489346647        -125.017507          0.4692397         51.1512373        0.593573994         159.641485        0.430158018          134.49312

2.03e+09       0.307793016         109.670281        0.644927286         89.8558239        0.497482116         46.7911592        0.488275687        -125.681349
                      0.644927286         89.8558239        0.409122962         99.5991763        0.438394501        -135.018353        0.470087345         50.4079256
                      0.497482116         46.7911592        0.438394501        -135.018353        0.450905026         122.486965        0.594988945         159.222209
                      0.488275687        -125.681349        0.470087345         50.4079256        0.594988945         159.222209        0.428470298         133.875117

2.035e+09       0.306482598         109.291811        0.646011728         89.2258683        0.497943133         46.0315265        0.487170699        -126.347732
                      0.646011728         89.2258683        0.408461834         99.1158994         0.43646175        -135.696081        0.470943986         49.6621829
                      0.497943133         46.0315265         0.43646175        -135.696081        0.450325324         121.932142        0.596450445          158.80105
                      0.487170699        -126.347732        0.470943986         49.6621829        0.596450445          158.80105        0.426730856         133.252223

2.04e+09       0.305140799         108.912552        0.647128629         88.5948629        0.498407124         45.2702267        0.486031135        -127.016716
                      0.647128629         88.5948629        0.407759651         98.6297586        0.434497302        -136.376057        0.471809409         48.9139711
                      0.498407124         45.2702267        0.434497302        -136.376057        0.449696296         121.375626        0.597958511         158.377905
                      0.486031135        -127.016716        0.471809409         48.9139711        0.597958511         158.377905         0.42493907         132.624335

2.045e+09       0.303767407         108.532597        0.648278115         87.9627449        0.498873785         44.5072419        0.484856428        -127.688364
                      0.648278115         87.9627449        0.407015753         98.1407619        0.432500773        -137.058353        0.472683386         48.1632521
                      0.498873785         44.5072419        0.432500773        -137.058353        0.449017519         120.817446        0.599513144         157.952674
                      0.484856428        -127.688364        0.472683386         48.1632521        0.599513144         157.952674        0.423094312         131.991353

2.05e+09       0.302362225         108.152041        0.649460304         87.3294508        0.499342805         43.7425553        0.483645994        -128.362736
                      0.649460304         87.3294508        0.406229474         97.6489186        0.430471763        -137.743045        0.473565681         47.4099878
                      0.499342805         43.7425553        0.430471763        -137.743045        0.448288577         120.257629        0.601114332         157.525256
                      0.483645994        -128.362736        0.473565681         47.4099878        0.601114332         157.525256         0.42119595          131.35317

2.055e+09       0.300925075         107.770987        0.650675308         86.6949166        0.499813865         42.9761507        0.482399229        -129.039895
                      0.650675308         86.6949166        0.405400154         97.1542402        0.428409854        -138.430208        0.474456043         46.6541402
                      0.499813865         42.9761507        0.428409854        -138.430208        0.447509056         119.696207        0.602762049          157.09555
                      0.482399229        -129.039895        0.474456043         46.6541402        0.602762049          157.09555        0.419243346         130.709679

2.06e+09       0.299455797         107.389541        0.651923229         86.0590778        0.500286634         42.2080126        0.481115515        -129.719903
                      0.651923229         86.0590778         0.40452713         96.6567395        0.426314614        -139.119919        0.475354211         45.8956717
                      0.500286634         42.2080126        0.426314614        -139.119919        0.446678551          119.13321         0.60445625         156.663455
                      0.481115515        -129.719903        0.475354211         45.8956717         0.60445625         156.663455        0.417235858          130.06077

2.065e+09       0.297954253         107.007814        0.653204162         85.4218691        0.500760775         41.4381265        0.479794211        -130.402822
                      0.653204162         85.4218691        0.403609743         96.1564314        0.424185594        -139.812257        0.476259911         45.1345446
                      0.500760775         41.4381265        0.424185594        -139.812257         0.44579666         118.568671        0.606196874          156.22887
                      0.479794211        -130.402822        0.476259911         45.1345446        0.606196874          156.22887         0.41517284          129.40633

2.07e+09       0.296420324         106.625922        0.654518193          84.783225        0.501235939         40.6664787        0.478434662        -131.088717
                      0.654518193          84.783225        0.402647336         95.6533325        0.422022327          -140.5073        0.477172856         44.3707214
                      0.501235939         40.6664787        0.422022327          -140.5073        0.444862988         118.002624        0.607983842         155.791695
                      0.478434662        -131.088717        0.477172856         44.3707214        0.607983842         155.791695        0.413053646         128.746243

2.075e+09       0.294853915         106.243987        0.655865396         84.1430792         0.50171177         39.8930563        0.477036194        -131.777649
                      0.655865396         84.1430792        0.401639254         95.1474614        0.419824332        -141.205129        0.478092745         43.6041652
                       0.50171177         39.8930563        0.419824332        -141.205129        0.443877147         117.435104        0.609817056         155.351828
                      0.477036194        -131.777649        0.478092745         43.6041652        0.609817056         155.351828        0.410877624          128.08039

2.08e+09       0.293254954         105.862136        0.657245838         83.5013651        0.502187901         39.1178477        0.475598113        -132.469682
                      0.657245838         83.5013651        0.400584848         94.6388388        0.417591111        -141.905826        0.479019265         42.8348389
                      0.502187901         39.1178477        0.417591111        -141.905826        0.442838755         116.866148        0.611696396          154.90917
                      0.475598113        -132.469682        0.479019265         42.8348389        0.611696396          154.90917        0.408644124         127.408649

2.085e+09       0.291623391           105.4805        0.658659571         82.8580153        0.502663958          38.340842        0.474119711         -133.16488
                      0.658659571         82.8580153        0.399483472         94.1274872        0.415322152        -142.609474        0.479952086         42.0627061
                      0.502663958          38.340842        0.415322152        -142.609474        0.441747436         116.295794        0.613621724         154.463621
                      0.474119711         -133.16488        0.479952086         42.0627061        0.613621724         154.463621        0.406352494         126.730895

2.09e+09       0.289959206         105.099218        0.660106638          82.212962        0.503139557         37.5620294        0.472600261        -133.863305
                      0.660106638          82.212962        0.398334486         93.6134317        0.413016924        -143.316156        0.480890866         41.2877306
                      0.503139557         37.5620294        0.413016924        -143.316156        0.440602824         115.724084        0.615592877          154.01508
                      0.472600261        -133.863305        0.480890866         41.2877306        0.615592877          154.01508        0.404002084            126.047

2.095e+09       0.288262402         104.718433        0.661587069         81.5661369        0.503614304         36.7814014        0.471039018        -134.565022
                      0.661587069         81.5661369        0.397137256         93.0966991        0.410674884        -144.025958        0.481835249         40.5098765
                      0.503614304         36.7814014        0.410674884        -144.025958        0.439404559          115.15106        0.617609668         153.563448
                      0.471039018        -134.565022        0.481835249         40.5098765        0.617609668         153.563448        0.401592243         125.356829

2.1e+09        0.28653301         104.338295         0.66310088         80.9174714        0.504087797         35.9989506        0.469435221        -135.270093
                       0.66310088         80.9174714        0.395891154         92.5773189        0.408295471        -144.738966        0.482784862         39.7291085
                      0.504087797         35.9989506        0.408295471        -144.738966        0.438152292         114.576766        0.619671886         153.108626
                      0.469435221        -135.270093        0.482784862         39.7291085        0.619671886         153.108626        0.399122327         124.660248

2.105e+09       0.284771092         103.958959        0.664648073         80.2668961        0.504559625         35.2146707        0.467788092        -135.978582
                      0.664648073         80.2668961        0.394595562         92.0553228        0.405878111        -145.455269        0.483739317         38.9453918
                      0.504559625         35.2146707        0.405878111        -145.455269        0.436845681         114.001248        0.621779296         152.650516
                      0.467788092        -135.978582        0.483739317         38.9453918        0.621779296         152.650516         0.39659169         123.957115

2.11e+09       0.282976738         103.580587        0.666228636         79.6143413        0.505029367         34.4285568        0.466096836        -136.690553
                      0.666228636         79.6143413        0.393249869         91.5307449        0.403422215        -146.174953         0.48469821         38.1586921
                      0.505029367         34.4285568        0.403422215        -146.174953        0.435484394         113.424557        0.623931633         152.189018
                      0.466096836        -136.690553         0.48469821         38.1586921        0.623931633         152.189018        0.393999696         123.247286

2.115e+09       0.281150069         103.203346        0.667842541          78.959737        0.505496596         33.6406053        0.464360643        -137.406068
                      0.667842541          78.959737        0.391853474         91.0036219         0.40092718         -146.89811        0.485661121         37.3689757
                      0.505496596         33.6406053         0.40092718         -146.89811        0.434068112         112.846744        0.626128604         151.724036
                      0.464360643        -137.406068        0.485661121         37.3689757        0.626128604         151.724036        0.391345713         122.530612

2.12e+09       0.279291239          102.82741        0.669489742         78.3030125        0.505960875         32.8508141        0.462578687        -138.125191
                      0.669489742         78.3030125        0.390405785         90.4739932        0.398392388        -147.624831        0.486627614         36.5762096
                      0.505960875         32.8508141        0.398392388        -147.624831        0.432596525         112.267862        0.628369888         151.255472
                      0.462578687        -138.125191        0.486627614         36.5762096        0.628369888         151.255472        0.388629115         121.806936

2.125e+09       0.277400435         102.452961        0.671170177         77.6440971        0.506421759         32.0591824        0.460750127        -138.847983
                      0.671170177         77.6440971        0.388906224         89.9419007        0.395817209        -148.355208        0.487597236         35.7803614
                      0.506421759         32.0591824        0.395817209        -148.355208        0.431069335          111.68797         0.63065513         150.783231
                      0.460750127        -138.847983        0.487597236         35.7803614         0.63065513         150.783231        0.385849289         121.076101

2.13e+09       0.275477877         102.080186        0.672883765         76.9829194        0.506878794          31.265711        0.458874108        -139.574508
                      0.672883765         76.9829194        0.387354222         89.4073894           0.393201        -149.089334        0.488569517         34.9813996
                      0.506878794          31.265711           0.393201        -149.089334        0.429486259         111.107126        0.632983945         150.307217
                      0.458874108        -139.574508        0.488569517         34.9813996        0.632983945         150.307217        0.383005628          120.33794

2.135e+09        0.27352382         101.709278        0.674630407         76.3194079        0.507331521         30.4704022         0.45694976        -140.304826
                      0.674630407         76.3194079        0.385749227          88.870507        0.390543105        -149.827304        0.489543968         34.1792935
                      0.507331521         30.4704022        0.390543105        -149.827304        0.427847025         110.525394        0.635355913         149.827336
                       0.45694976        -140.304826        0.489543968         34.1792935        0.635355913         149.827336         0.38009754         119.592281

2.14e+09       0.271538556         101.340438        0.676409981         75.6534908        0.507779471           29.67326          0.4549762           -141.039
                      0.676409981         75.6534908        0.384090698         88.3313041        0.387842856        -150.569215        0.490520085         33.3740131
                      0.507779471           29.67326        0.387842856        -150.569215        0.426151378          109.94284         0.63777058         149.343494
                        0.4549762           -141.039        0.490520085         33.3740131         0.63777058         149.343494        0.377124446         118.838949

2.145e+09       0.269522413         100.973875        0.678222346         74.9850961         0.50822217         28.8742902        0.452952532        -141.777091
                      0.678222346         74.9850961         0.38237811         87.7898346        0.385099575        -151.315164        0.491497344         32.5655296
