#  HZ   S   RI   R     50.00 
! Rohde & Schwarz Vector Network Analyzer 
! Rohde-Schwarz,ZNBT8-20Port,1318700624101530,3.45
! Created: UTC 9/9/2023, 5:48:10 PM
! freq[Hz]                re:S11                  im:S11                  re:S12                  im:S12                  re:S13                  im:S13                  re:S14                  im:S14
!                         re:S21                  im:S21                  re:S22                  im:S22                  re:S23                  im:S23                  re:S24                  im:S24
!                         re:S31                  im:S31                  re:S32                  im:S32                  re:S33                  im:S33                  re:S34                  im:S34
!                         re:S41                  im:S41                  re:S42                  im:S42                  re:S43                  im:S43                  re:S44                  im:S44
! 
 2.000000000000000E9     1.576380391139051E-1    2.796740653263281E-1    4.938855230974861E-1    4.012939612487470E-1    5.063885019763145E-1   -1.314478622372444E-2   -4.937824049022547E-1   -9.763034220691883E-3
                         4.934415544924091E-1    4.005619172932695E-1    2.832535039926444E-1    3.110954752001321E-1   -4.300695283822901E-1    2.822812087901946E-2    4.550205055623939E-1   -2.663470069748161E-2
                         5.062217040677885E-1   -1.266296484422141E-2   -4.302023680731976E-1    2.734784464595283E-2    1.575805929740979E-1    4.401772953098615E-1   -1.216739253315166E-1    5.559965069656573E-1
                        -4.936717313413618E-1   -1.003182681980789E-2    4.549763716244993E-1   -2.622173493085319E-2   -1.210128100852712E-1    5.557534348866044E-1    1.362098368638685E-1    4.142611119691630E-1

 2.005000000000000E9     1.609789467277537E-1    2.779537355178961E-1    4.997429868148933E-1    3.950473106097983E-1    5.063616608886182E-1   -2.172671220470663E-2   -4.921759899100708E-1   -2.954127348357356E-3
                         4.995424203424940E-1    3.943722002264850E-1    2.862124809836965E-1    3.085068218911022E-1   -4.282791561640540E-1    3.426806079439595E-2    4.552045629385064E-1   -3.372361187809177E-2
                         5.062766889839990E-1   -2.052731904986624E-2   -4.283258135274214E-1    3.389616042023439E-2    1.629730986913759E-1    4.381816986403064E-1   -1.166090577912692E-1    5.579943934912240E-1
                        -4.923679876640550E-1   -3.641289456405402E-3    4.558095145588269E-1   -3.316810857472031E-2   -1.161302911474414E-1    5.577909980612025E-1    1.410449370364976E-1    4.123880738268046E-1

 2.010000000000000E9     1.632014362559131E-1    2.760079941640889E-1    5.056150031782444E-1    3.882763397933626E-1    5.062152180648308E-1   -2.906934045733065E-2   -4.915765793273981E-1    3.681037733527000E-3
                         5.053395302446277E-1    3.885683121864313E-1    2.885836739536120E-1    3.052775767687201E-1   -4.263178089777598E-1    3.990024050068854E-2    4.561547701070849E-1   -4.081888812673266E-2
                         5.062273716584175E-1   -2.858468511491684E-2   -4.262718328567596E-1    3.930704061416592E-2    1.683247796734346E-1    4.361091765061957E-1   -1.113233629232043E-1    5.601036775638041E-1
                        -4.912567583434749E-1    3.540527487529698E-3    4.563064388542628E-1   -4.008160570057603E-2   -1.113970134692511E-1    5.599515563797816E-1    1.462631943267544E-1    4.101338013534215E-1

 2.015000000000000E9     1.654992949618054E-1    2.736806801940930E-1    5.112096163594467E-1    3.823336326269854E-1    5.060747354055107E-1   -3.739273465030393E-2   -4.905388547406704E-1    1.024528943930996E-2
                         5.108205367562746E-1    3.820389522833941E-1    2.912126793547867E-1    3.024111027903911E-1   -4.237399765605053E-1    4.613595010588736E-2    4.562338420520126E-1   -4.774031799487599E-2
                         5.060216109224016E-1   -3.699159273945142E-2   -4.239709222655342E-1    4.525627718916442E-2    1.734573536368810E-1    4.334709232301504E-1   -1.059924812326457E-1    5.617699248871985E-1
                        -4.901923560792878E-1    9.875160614098386E-3    4.563376117275951E-1   -4.713441924679402E-2   -1.063265725678540E-1    5.619161771417571E-1    1.509958928067388E-1    4.082428655137685E-1

 2.020000000000000E9     1.668074400608567E-1    2.725062588628129E-1    5.168765264088312E-1    3.754325521330946E-1    5.055880985243394E-1   -4.576078651114778E-2   -4.895045744625987E-1    1.747466950156741E-2
                         5.172719839147589E-1    3.753884673400267E-1    2.938544440570957E-1    2.997884556675895E-1   -4.213039762825443E-1    5.115881895654845E-2    4.563912063109886E-1   -5.496212965019129E-2
                         5.057267651201083E-1   -4.459751584771535E-2   -4.214431020814834E-1    5.052504268882281E-2    1.785465427677450E-1    4.313175602431174E-1   -1.007603876391635E-1    5.643109108289798E-1
                        -4.890625699077363E-1    1.688925964219786E-2    4.561538202382567E-1   -5.412936596119343E-2   -1.009849342144593E-1    5.641681073231375E-1    1.561527313278018E-1    4.056773881846275E-1

 2.025000000000000E9     1.683696149072963E-1    2.712129891469809E-1    5.228871491575789E-1    3.692670756507819E-1    5.057828879422241E-1   -5.395342441684027E-2   -4.877572232031188E-1    2.412529698466607E-2
                         5.230088210756733E-1    3.694524449625210E-1    2.959536466532232E-1    2.961104908303243E-1   -4.189658575688458E-1    5.688926357483992E-2    4.562431674840774E-1   -6.127676513259488E-2
                         5.052569320823941E-1   -5.288205820635600E-2   -4.193874510526977E-1    5.622280956086002E-2    1.837703113028130E-1    4.294705080241210E-1   -9.529684059495519E-2    5.665555878612040E-1
                        -4.876785873288116E-1    2.377077116164560E-2    4.567809028955941E-1   -6.153087969572844E-2   -9.511097376361098E-2    5.665886046286355E-1    1.600679889484751E-1    4.025884947880740E-1

 2.030000000000000E9     1.692885611867211E-1    2.686482573804284E-1    5.287239142345433E-1    3.624903802108268E-1    5.053971302932014E-1   -6.155634062085336E-2   -4.864515644845684E-1    3.113475202098415E-2
                         5.283622038740216E-1    3.622596449186225E-1    2.979615083207494E-1    2.925025138197495E-1   -4.166304922122739E-1    6.275557167122295E-2    4.564230450399478E-1   -6.919096470361706E-2
                         5.052819176748499E-1   -6.126901111251771E-2   -4.167570815736843E-1    6.200740967669884E-2    1.886556844769125E-1    4.273175824740696E-1   -9.012859550486657E-2    5.684409558516059E-1
                        -4.865754037308754E-1    3.030705366627197E-2    4.563315466847997E-1   -6.859228639134918E-2   -8.969160070091198E-2    5.689690695836408E-1    1.642604436159211E-1    4.001586799275342E-1

 2.035000000000000E9     1.698430697436603E-1    2.669344722604813E-1    5.341304449058045E-1    3.557246850133907E-1    5.042942755591681E-1   -6.970807189988609E-2   -4.846536165676116E-1    3.749902574660726E-2
                         5.338694215729790E-1    3.559146602273543E-1    3.000330893458941E-1    2.889995207166658E-1   -4.140245458995833E-1    6.772818007214135E-2    4.562554995294223E-1   -7.583935351328303E-2
                         5.044716316047166E-1   -6.896145223098572E-2   -4.143050737002279E-1    6.734847940114053E-2    1.934651724334799E-1    4.242965559696517E-1   -8.513839607680598E-2    5.704019773236046E-1
                        -4.842144314112645E-1    3.754650172695742E-2    4.566031802740971E-1   -7.523082092252788E-2   -8.453250740261600E-2    5.704592831568760E-1    1.682875008550949E-1    3.967195354250282E-1

 2.040000000000000E9     1.705285075903628E-1    2.639312914225119E-1    5.398679677987893E-1    3.486772424673821E-1    5.035682100083251E-1   -7.777311573433744E-2   -4.825949392524616E-1    4.470662592090133E-2
                         5.391518284323201E-1    3.488570635144254E-1    3.023327239710676E-1    2.853251483202022E-1   -4.114738000837065E-1    7.307120325900129E-2    4.559729174286372E-1   -8.377616377576592E-2
                         5.037465405945472E-1   -7.716484360766830E-2   -4.111998928396000E-1    7.277920127309818E-2    1.977187849990560E-1    4.219937774443429E-1   -7.965753310602403E-2    5.724287495823610E-1
                        -4.825363120519977E-1    4.438394236389940E-2    4.557671167908486E-1   -8.307032668900965E-2   -7.905179000944385E-2    5.724462543014384E-1    1.728825152965115E-1    3.930346999262150E-1

 2.045000000000000E9     1.710692235675089E-1    2.614676488313836E-1    5.449777406323780E-1    3.419768849916760E-1    5.028480654627084E-1   -8.552428633800437E-2   -4.808008641448265E-1    5.103367619651755E-2
                         5.447619962494430E-1    3.418440402145956E-1    3.043830775323231E-1    2.822041049758161E-1   -4.087043539099284E-1    7.906283991361066E-2    4.554449100918200E-1   -9.072877105570494E-2
                         5.026171257041662E-1   -8.480518593818183E-2   -4.086972969274558E-1    7.813923509822310E-2    2.022322920664395E-1    4.181281174772806E-1   -7.387400755104372E-2    5.739894183243249E-1
                        -4.812436845464867E-1    5.055190920202918E-2    4.556999570110215E-1   -9.001921250575300E-2   -7.361087398304603E-2    5.740510556122028E-1    1.770837356438327E-1    3.891239964747073E-1

 2.050000000000000E9     1.717129930411266E-1    2.577665342760876E-1    5.502665326414609E-1    3.350905604930859E-1    5.017304360385882E-1   -9.350194592409147E-2   -4.790253390068231E-1    5.806436100198340E-2
                         5.502204901260231E-1    3.349152357300247E-1    3.062159326688289E-1    2.779322155070701E-1   -4.054689113539509E-1    8.382014789585836E-2    4.544149955947636E-1   -9.818924238893623E-2
                         5.019251408284625E-1   -9.283704030089865E-2   -4.052426986133015E-1    8.311163266099331E-2    2.074747594468487E-1    4.151609980406207E-1   -6.908114575563748E-2    5.761114180580965E-1
                        -4.787551117143621E-1    5.748620425246561E-2    4.547517339195262E-1   -9.793141283444792E-2   -6.824048007127324E-2    5.764788486125171E-1    1.816452287328223E-1    3.852626809605313E-1

 2.055000000000000E9     1.733954330412245E-1    2.543311179371727E-1    5.556631291399882E-1    3.283388501020569E-1    5.007086546829246E-1   -1.018866978834082E-1   -4.765616906762152E-1    6.467699272720498E-2
                         5.555426339973224E-1    3.284024604487179E-1    3.085162502936158E-1    2.749905491908035E-1   -4.016574624772446E-1    8.945743673659558E-2    4.537926490633231E-1   -1.055437108493664E-1
                         5.007860757650842E-1   -1.010976412963201E-1   -4.019675636940198E-1    8.904715590780590E-2    2.120544822580629E-1    4.113051984124228E-1   -6.361261029650488E-2    5.780968916707099E-1
                        -4.769080068665509E-1    6.423472172752122E-2    4.539955802296232E-1   -1.052097622058834E-1   -6.336903079399386E-2    5.784114926259527E-1    1.859980922165794E-1    3.806458137514113E-1

 2.060000000000000E9     1.749952691656510E-1    2.505774431787751E-1    5.610079633088042E-1    3.218275126197252E-1    4.997694840268367E-1   -1.095905285345692E-1   -4.743308908979953E-1    7.147559260593481E-2
                         5.601720236589216E-1    3.214515292214984E-1    3.107488083287059E-1    2.710457528309954E-1   -3.989547967989413E-1    9.497853985777387E-2    4.527919087794713E-1   -1.133213131958138E-1
                         4.999520032627956E-1   -1.085418300788597E-1   -3.989849468173732E-1    9.456461967569166E-2    2.167015216703710E-1    4.081941545393758E-1   -5.824077123404801E-2    5.803232186483747E-1
                        -4.740641628894140E-1    7.102164735679671E-2    4.528759112488188E-1   -1.126670129600569E-1   -5.827066131300805E-2    5.802837639312570E-1    1.900563267083038E-1    3.763074252242564E-1

 2.065000000000000E9     1.776207931087723E-1    2.467699351586676E-1    5.658180553072605E-1    3.146495050404635E-1    4.985434456590832E-1   -1.176500692904350E-1   -4.715303255414571E-1    7.759640923260010E-2
                         5.657177402600404E-1    3.139532018904001E-1    3.132333586336461E-1    2.674572642361101E-1   -3.954689733756102E-1    1.001040913700246E-1    4.514437367304113E-1   -1.207628424897348E-1
                         4.984137111021975E-1   -1.173704085547357E-1   -3.954061716631805E-1    9.957203656990328E-2    2.212798075132872E-1    4.040918654245216E-1   -5.289046292113112E-2    5.825053373468611E-1
                        -4.719769926591823E-1    7.795031423628386E-2    4.517740263592570E-1   -1.200427434502193E-1   -5.260539590641243E-2    5.827785243550416E-1    1.946542558961836E-1    3.715642333187799E-1

 2.070000000000000E9     1.801671622410525E-1    2.433950041691549E-1    5.706217380618324E-1    3.072944502895953E-1    4.974771632343975E-1   -1.255911986679688E-1   -4.692037603468606E-1    8.467886340745863E-2
                         5.703611594694875E-1    3.071040494745077E-1    3.157744121561054E-1    2.634077188017481E-1   -3.920583411507202E-1    1.052037169278904E-1    4.502524087010835E-1   -1.280792240826099E-1
                         4.973755273045791E-1   -1.245593031625377E-1   -3.918392522504235E-1    1.051238603626318E-1    2.257230658880025E-1    4.003143015327853E-1   -4.770626107899259E-2    5.847134121909464E-1
                        -4.692932733786111E-1    8.394987007066666E-2    4.503340629359756E-1   -1.278279640054496E-1   -4.745272635228971E-2    5.843420112162564E-1    1.993011999206215E-1    3.667982680717038E-1

 2.075000000000000E9     1.829024670530810E-1    2.401516298419986E-1    5.760764122982743E-1    3.008536203513706E-1    4.956779918069921E-1   -1.335110175585268E-1   -4.661226068347128E-1    9.107888055249803E-2
                         5.753899349896190E-1    3.002220653547417E-1    3.183998917161366E-1    2.599086583286588E-1   -3.880645128949545E-1    1.107948665960328E-1    4.487088180122567E-1   -1.355876816008041E-1
                         4.956837914542795E-1   -1.329280663547683E-1   -3.886319040808840E-1    1.101068915951003E-1    2.305359318891399E-1    3.961135315655435E-1   -4.250540576990695E-2    5.867584298834454E-1
                        -4.661611687965811E-1    9.052026623865907E-2    4.490163443497509E-1   -1.352339126545363E-1   -4.230534877906451E-2    5.866315029982391E-1    2.038530884172358E-1    3.620959707691004E-1

 2.080000000000000E9     1.862654102486439E-1    2.369168801454505E-1    5.811239249037021E-1    2.929017499720603E-1    4.938592619243992E-1   -1.421556853393855E-1   -4.636625561002535E-1    9.769961336185704E-2
                         5.809342479985943E-1    2.930460613986343E-1    3.206543129729938E-1    2.553328044495639E-1   -3.844094811835875E-1    1.155470321722067E-1    4.473510086724010E-1   -1.426418109976914E-1
                         4.945877183531630E-1   -1.413583604426551E-1   -3.849519327734810E-1    1.154060163236348E-1    2.352411945415411E-1    3.925144848740141E-1   -3.693801966331922E-2    5.889896860993156E-1
                        -4.637573844938727E-1    9.687923988128427E-2    4.476720668147666E-1   -1.425474852463785E-1   -3.620219633235123E-2    5.892903271750765E-1    2.085927948456656E-1    3.577857823508329E-1

 2.085000000000000E9     1.890966412344837E-1    2.350459647293974E-1    5.861287158788555E-1    2.863363539993625E-1    4.925877578621981E-1   -1.500525448987529E-1   -4.602837802409262E-1    1.040869277237645E-1
                         5.857620361207041E-1    2.861015173481839E-1    3.232081558240671E-1    2.515225910787383E-1   -3.808829447782309E-1    1.206539533431340E-1    4.455290808472990E-1   -1.501063411823568E-1
                         4.931049067984357E-1   -1.495984976871254E-1   -3.807759712216434E-1    1.200329640690587E-1    2.395086352561676E-1    3.886106462373198E-1   -3.133052383442313E-2    5.918432867429355E-1
                        -4.605285398990306E-1    1.039191799123672E-1    4.458258239242197E-1   -1.500678468851991E-1   -3.163470551153218E-2    5.915780971565364E-1    2.131119643226236E-1    3.534670585557632E-1

 2.090000000000000E9     1.912828933908756E-1    2.333039769074608E-1    5.908624123241361E-1    2.784699860635501E-1    4.907551839863781E-1   -1.584929512532535E-1   -4.570130394987765E-1    1.104158299582742E-1
                         5.906444143345204E-1    2.782534549191097E-1    3.254815142560790E-1    2.473135714775976E-1   -3.769219583312874E-1    1.254185853785524E-1    4.437769190011389E-1   -1.573135371792498E-1
                         4.906043119409286E-1   -1.576181362309552E-1   -3.768491682583740E-1    1.247988712492796E-1    2.444385252802756E-1    3.838125170123984E-1   -2.499411164919800E-2    5.938591521730400E-1
                        -4.572533442389162E-1    1.098023918722974E-1    4.440988667232202E-1   -1.571761587599481E-1   -2.525938749491655E-2    5.939011030572924E-1    2.174443243781518E-1    3.489124272388500E-1

 2.095000000000000E9     1.945020103113768E-1    2.327846224327087E-1    5.962554272237729E-1    2.711479542591235E-1    4.891641902911938E-1   -1.668580733839994E-1   -4.543689475423090E-1    1.170331627540744E-1
                         5.964144330831588E-1    2.709747012727685E-1    3.285134522273515E-1    2.425517233254093E-1   -3.727242857572257E-1    1.292825458837101E-1    4.419058580677178E-1   -1.643700331163522E-1
                         4.891406585619442E-1   -1.660552562042386E-1   -3.733263122252060E-1    1.290665535824167E-1    2.476423730370085E-1    3.799189586114426E-1   -1.953132042243527E-2    5.965653343380936E-1
                        -4.543274989510913E-1    1.166655563676647E-1    4.419635634153805E-1   -1.641224706988646E-1   -1.907223633733754E-2    5.968386984754662E-1    2.215416172987457E-1    3.437865891110672E-1

 2.100000000000000E9     1.954764649292076E-1    2.312379765802213E-1    6.013756014381295E-1    2.633912602157144E-1    4.869736977824847E-1   -1.750846091488437E-1   -4.507263093968696E-1    1.234100749048722E-1
                         6.009661962490785E-1    2.633694379490866E-1    3.298390651850868E-1    2.380422767486753E-1   -3.693342297812842E-1    1.343577332101133E-1    4.403722138007733E-1   -1.716501830685618E-1
                         4.866848273421765E-1   -1.741435731277236E-1   -3.692121866046749E-1    1.335256147273012E-1    2.518849489190843E-1    3.761661764839578E-1   -1.295376767110242E-2    5.987695664108103E-1
                        -4.506668799946144E-1    1.224728945131933E-1    4.402357335724673E-1   -1.710151288239936E-1   -1.253900588062964E-2    5.986111450579150E-1    2.252843632451349E-1    3.398265623745093E-1

 2.105000000000000E9     1.965685617019999E-1    2.303680770677104E-1    6.066784738240214E-1    2.553282817613898E-1    4.841576277615333E-1   -1.837969611810145E-1   -4.471749576408844E-1    1.289134333080539E-1
                         6.060952106849117E-1    2.551426408928469E-1    3.318637783312632E-1    2.331550183331824E-1   -3.650192594225146E-1    1.387605606403524E-1    4.381588011413866E-1   -1.786280043675527E-1
                         4.846846997824946E-1   -1.826818970343506E-1   -3.656312174129447E-1    1.384088310430845E-1    2.553440835849121E-1    3.712563883028743E-1   -6.409251757493421E-3    6.006529071466650E-1
                        -4.474179912119234E-1    1.286201385297339E-1    4.388861733124852E-1   -1.783343378631499E-1   -5.709507352267532E-3    6.009023949318684E-1    2.289059195486881E-1    3.354174363195394E-1

