#  HZ   S   RI   R     50.00 
! Rohde & Schwarz Vector Network Analyzer 
! Rohde-Schwarz,ZNBT8-20Port,1318700624101530,3.45
! Created: UTC 9/9/2023, 5:57:14 PM
! freq[Hz]                re:S11                  im:S11                  re:S12                  im:S12                  re:S13                  im:S13                  re:S14                  im:S14
!                         re:S21                  im:S21                  re:S22                  im:S22                  re:S23                  im:S23                  re:S24                  im:S24
!                         re:S31                  im:S31                  re:S32                  im:S32                  re:S33                  im:S33                  re:S34                  im:S34
!                         re:S41                  im:S41                  re:S42                  im:S42                  re:S43                  im:S43                  re:S44                  im:S44
! 
 1.000000000000000E9    -4.227551955728516E-1    4.607323551773819E-1    2.384909473048570E-2   -4.249417576795413E-1   -9.382755077841806E-2   -4.852437682457726E-1    5.134030608622826E-3   -4.356349341829684E-1
                         2.354875814339840E-2   -4.248918616126705E-1   -3.937882277716234E-1    4.702231160936035E-1   -3.694433667643562E-3   -4.311406198221000E-1   -1.104790163834265E-1   -4.776983721994860E-1
                        -9.345579246363865E-2   -4.853154269139565E-1   -3.326584356589182E-3   -4.314626550566051E-1   -4.100287569200961E-1    4.679810020436336E-1    1.498547022479511E-2   -4.302410449455327E-1
                         5.656439211402388E-3   -4.355809849855213E-1   -1.104218394083987E-1   -4.776686323097695E-1    1.494267763707618E-2   -4.302857317857453E-1   -3.967185857643533E-1    4.647326755090105E-1

 1.025000000000000E9    -4.218832233743754E-1    4.770125374618708E-1    9.603504928439980E-3   -4.231704343491395E-1   -1.124495363338079E-1   -4.837865564769614E-1   -1.039322301933598E-2   -4.336164908798917E-1
                         9.306856043705753E-3   -4.231027732551620E-1   -3.807584374491540E-1    4.849886431425687E-1   -1.807392265143955E-2   -4.271690885629613E-1   -1.327933713203927E-1   -4.716028163067163E-1
                        -1.124118102042283E-1   -4.832825574728404E-1   -1.796849148478415E-2   -4.275940083990776E-1   -4.001683723087341E-1    4.860490261789176E-1    2.784186186161146E-4   -4.270947365074429E-1
                        -9.490025072378673E-3   -4.335738293256511E-1   -1.318940037174757E-1   -4.718458980503615E-1    1.187242745779645E-4   -4.271556006518923E-1   -3.833783974718268E-1    4.794863358216459E-1

 1.050000000000000E9    -4.117142558711894E-1    4.868848469497627E-1   -3.938422942250287E-3   -4.229207677729191E-1   -1.348676240034138E-1   -4.817866447200913E-1   -2.453151666331585E-2   -4.325859605957288E-1
                        -4.460818438961709E-3   -4.227092961216478E-1   -3.657849524070829E-1    4.997504401779553E-1   -3.330055127937422E-2   -4.237148731508359E-1   -1.522902846117669E-1   -4.649990693143967E-1
                        -1.344871101366137E-1   -4.818122110046754E-1   -3.300918855617200E-2   -4.238598150875186E-1   -3.882691020769360E-1    5.005162173217689E-1   -1.475853971942712E-2   -4.234529117820297E-1
                        -2.363745130449691E-2   -4.321444735851679E-1   -1.520393826512748E-1   -4.651730153754690E-1   -1.470274331467794E-2   -4.240526218128556E-1   -3.683195276772509E-1    4.943635898502018E-1

 1.075000000000000E9    -3.930674420376856E-1    5.039944043737234E-1   -2.067361241583703E-2   -4.210689862803268E-1   -1.580779577654605E-1   -4.752419524058734E-1   -4.150515498255385E-2   -4.300221865987529E-1
                        -2.034890671419594E-2   -4.213150436080767E-1   -3.510634841821939E-1    5.126192290366021E-1   -4.837910337437435E-2   -4.193019799281191E-1   -1.724993913093722E-1   -4.600384944629066E-1
                        -1.575802165799373E-1   -4.753703635085880E-1   -4.816751635906585E-2   -4.191163279894158E-1   -3.697569621343712E-1    5.117550334503247E-1   -2.943234203563593E-2   -4.203628531838084E-1
                        -4.089841499307510E-2   -4.299065934234046E-1   -1.722405248998253E-1   -4.602238553908171E-1   -2.962823408515112E-2   -4.202724830167612E-1   -3.527654381275889E-1    5.073934956484635E-1

 1.100000000000000E9    -3.816459752138663E-1    5.204349181039725E-1   -3.635928688501917E-2   -4.162637099016154E-1   -1.780479923650249E-1   -4.683886648582015E-1   -5.656481908697378E-2   -4.251729759528711E-1
                        -3.663962032036305E-2   -4.162663016310357E-1   -3.359620337030269E-1    5.255786561205895E-1   -6.315240521946636E-2   -4.146249967146302E-1   -1.943048611191690E-1   -4.531953101753863E-1
                        -1.772930117480758E-1   -4.680449182648350E-1   -6.318279950627237E-2   -4.143494797896898E-1   -3.563417669589779E-1    5.260491299137390E-1   -4.384041983340561E-2   -4.167456292490987E-1
                        -5.614722861567289E-2   -4.250083070069235E-1   -1.937148234866569E-1   -4.532279646392188E-1   -4.364518403289325E-2   -4.166471168750574E-1   -3.396852916140663E-1    5.194413095070483E-1

 1.125000000000000E9    -3.687813352225278E-1    5.321878774769133E-1   -4.904744086738467E-2   -4.114756391750459E-1   -1.972336202015190E-1   -4.624040456235473E-1   -6.969677709597503E-2   -4.201944108412426E-1
                        -4.884531218221678E-2   -4.110635885036840E-1   -3.193130285763787E-1    5.400034273570284E-1   -7.776128119965099E-2   -4.089097307306561E-1   -2.150769453267385E-1   -4.442304965951028E-1
                        -1.967388314069651E-1   -4.629605737304519E-1   -7.752242206822371E-2   -4.090209097853436E-1   -3.437441907748462E-1    5.405220934323020E-1   -5.852604742233459E-2   -4.124894070605939E-1
                        -6.924646937419564E-2   -4.205474551881286E-1   -2.144191291768057E-1   -4.441329673169939E-1   -5.850687133107238E-2   -4.123026328244056E-1   -3.258647984395026E-1    5.331196975112104E-1

 1.150000000000000E9    -3.511815596181520E-1    5.500632348264989E-1   -6.313708307699949E-2   -4.086076108261831E-1   -2.193720387408419E-1   -4.560212451177564E-1   -8.488152920305476E-2   -4.166171116917933E-1
                        -6.320483308539376E-2   -4.085237964943600E-1   -3.031297988680713E-1    5.528175048526346E-1   -9.083358451636959E-2   -4.037476997608846E-1   -2.346173242502761E-1   -4.353293991289484E-1
                        -2.188251438909805E-1   -4.566917648324769E-1   -9.069443101488742E-2   -4.035218346440137E-1   -3.262409108265816E-1    5.534122417076530E-1   -7.236033661066200E-2   -4.075170381590175E-1
                        -8.464190854409004E-2   -4.161760149602857E-1   -2.337627326740576E-1   -4.358154314732893E-1   -7.243286267044778E-2   -4.080158228827326E-1   -3.090214325462461E-1    5.447308809729045E-1

 1.175000000000000E9    -3.372732954682174E-1    5.658367936706461E-1   -7.858541914745150E-2   -4.052275339935961E-1   -2.415815980725860E-1   -4.480655845182435E-1   -1.004512481414369E-1   -4.117404702114835E-1
                        -7.780636220980154E-2   -4.044856240630604E-1   -2.867344696143324E-1    5.634131329361742E-1   -1.037537308071359E-1   -3.983734589695493E-1   -2.534928415599922E-1   -4.260520170223927E-1
                        -2.418042983568748E-1   -4.481811053102818E-1   -1.035489922806191E-1   -3.980904076302648E-1   -3.093434550363558E-1    5.645420163022717E-1   -8.539470039345422E-2   -4.025855525972393E-1
                        -9.995073030357518E-2   -4.112980854289576E-1   -2.531977580224648E-1   -4.261507369646794E-1   -8.581408569525777E-2   -4.027181436540161E-1   -2.904415550152030E-1    5.541865844792574E-1

 1.200000000000000E9    -3.210625213696303E-1    5.761311377677624E-1   -9.094553375486408E-2   -3.990830520153856E-1   -2.611124551844919E-1   -4.385005209571845E-1   -1.133954813757967E-1   -4.055795216400210E-1
                        -9.084077027953003E-2   -3.988661985029604E-1   -2.687410843824523E-1    5.723873598103413E-1   -1.181819024708063E-1   -3.912693400736267E-1   -2.738670716045242E-1   -4.153814679558843E-1
                        -2.604946042695603E-1   -4.385383410471094E-1   -1.177709539718253E-1   -3.912395967777609E-1   -2.918724245878733E-1    5.749090489818386E-1   -1.001194529305088E-1   -3.966752802148155E-1
                        -1.128718419880974E-1   -4.052799993910785E-1   -2.734602692730688E-1   -4.157283629694952E-1   -1.002660669982943E-1   -3.968403714392988E-1   -2.721068411197214E-1    5.647832958787070E-1

 1.225000000000000E9    -3.022912429859373E-1    5.890489645718161E-1   -1.036110170392137E-1   -3.929147903527320E-1   -2.804373244384938E-1   -4.278851615990140E-1   -1.261558533444622E-1   -3.985983640933104E-1
                        -1.035849941129317E-1   -3.927132618823248E-1   -2.499334003147540E-1    5.831158314882118E-1   -1.310366843706229E-1   -3.841076704972657E-1   -2.932285789418467E-1   -4.041903828118717E-1
                        -2.794488094044907E-1   -4.280477141193922E-1   -1.307050644079644E-1   -3.837848517189479E-1   -2.725170455024465E-1    5.883446052909590E-1   -1.137244755400386E-1   -3.893698672730309E-1
                        -1.255837723788475E-1   -3.981956341311318E-1   -2.930837800508110E-1   -4.045381572131336E-1   -1.139444006887507E-1   -3.898583252412753E-1   -2.548798805069497E-1    5.768360789639031E-1

 1.250000000000000E9    -2.833585912250844E-1    6.057859399319810E-1   -1.171769395555541E-1   -3.882151819665275E-1   -3.028384252808645E-1   -4.185831675424702E-1   -1.401312791948654E-1   -3.935498437958706E-1
                        -1.174194105488073E-1   -3.883037379723835E-1   -2.282784439657537E-1    5.939743193429569E-1   -1.420446248937393E-1   -3.767246388082564E-1   -3.119298463783814E-1   -3.924223605431100E-1
                        -3.025185639556239E-1   -4.183530367596852E-1   -1.415487817820962E-1   -3.771478018523790E-1   -2.535508831355736E-1    6.001742008207642E-1   -1.257254626883545E-1   -3.842008497832785E-1
                        -1.401204737110859E-1   -3.936531450021331E-1   -3.118325445973886E-1   -3.927168164668510E-1   -1.256659071748600E-1   -3.842160496332027E-1   -2.357536978409820E-1    5.876389211884773E-1

 1.275000000000000E9    -2.635264352817813E-1    6.198615975696524E-1   -1.311425062441880E-1   -3.829470007160276E-1   -3.240122328392656E-1   -4.064577584805282E-1   -1.538717060842589E-1   -3.876366878578998E-1
                        -1.315319742862014E-1   -3.827172652619782E-1   -2.064138724523800E-1    6.022963298575649E-1   -1.539642504757658E-1   -3.694277565740908E-1   -3.307495225076588E-1   -3.797896204635567E-1
                        -3.232056042104939E-1   -4.065757961394247E-1   -1.536496172866183E-1   -3.693308810605601E-1   -2.327191802529471E-1    6.062237020136195E-1   -1.382690372733683E-1   -3.774275533415568E-1
                        -1.540820038735046E-1   -3.875535925898854E-1   -3.303793946868323E-1   -3.802819516591668E-1   -1.379061690908277E-1   -3.770655536566322E-1   -2.157721231906513E-1    5.942012458618610E-1

 1.300000000000000E9    -2.477314389154897E-1    6.298935859382823E-1   -1.436011673814431E-1   -3.754904678594134E-1   -3.419549171897898E-1   -3.933873976526667E-1   -1.656730040217836E-1   -3.796239272335867E-1
                        -1.435091380509572E-1   -3.754442906047786E-1   -1.856084870740710E-1    6.108858762052347E-1   -1.663167559534561E-1   -3.594225845612483E-1   -3.503843879438071E-1   -3.650019731782231E-1
                        -3.418832940447921E-1   -3.939700714654860E-1   -1.662202884361177E-1   -3.597588875269693E-1   -2.091483494894965E-1    6.157601125020432E-1   -1.513393332482007E-1   -3.682943013344282E-1
                        -1.656225575348049E-1   -3.800169265394717E-1   -3.499714996792769E-1   -3.656540840475113E-1   -1.513184041458174E-1   -3.685029334322239E-1   -1.952561594678704E-1    6.011465500440257E-1

 1.325000000000000E9    -2.276353661810042E-1    6.366572170307382E-1   -1.554689591049982E-1   -3.682641880726431E-1   -3.617642768389062E-1   -3.813595793820571E-1   -1.779986078696264E-1   -3.715600470322857E-1
                        -1.551598254299315E-1   -3.681211162684796E-1   -1.643149779199690E-1    6.197996394457856E-1   -1.767388666638115E-1   -3.520903042469340E-1   -3.684707052090524E-1   -3.500379711827246E-1
                        -3.613205698977137E-1   -3.814118383518474E-1   -1.761252403932129E-1   -3.522996041844840E-1   -1.907402850125378E-1    6.271772220907463E-1   -1.635047922567967E-1   -3.619477002842332E-1
                        -1.775247160159881E-1   -3.714637489414142E-1   -3.679846629437296E-1   -3.506292271487224E-1   -1.634633634883090E-1   -3.616131497584398E-1   -1.734067515778264E-1    6.093566095916171E-1

 1.350000000000000E9    -1.954980695726104E-1    6.450097676767352E-1   -1.685603080308888E-1   -3.608787615489659E-1   -3.844631127803888E-1   -3.667874081655750E-1   -1.913532022216107E-1   -3.638488872193786E-1
                        -1.684498647846714E-1   -3.608935063979956E-1   -1.417611779386820E-1    6.247295768566019E-1   -1.871233363892381E-1   -3.449320420945561E-1   -3.851479266955443E-1   -3.352333293618777E-1
                        -3.839810018397712E-1   -3.673431081702112E-1   -1.865989439138435E-1   -3.450725880530331E-1   -1.707866731514333E-1    6.308739948348211E-1   -1.753729760782761E-1   -3.548128821343959E-1
                        -1.907131242046555E-1   -3.641374329746585E-1   -3.848766212793009E-1   -3.359053033494448E-1   -1.748598189348226E-1   -3.551469455059409E-1   -1.503611904593888E-1    6.151189454133408E-1

 1.375000000000000E9    -1.701281198261937E-1    6.612843263709589E-1   -1.807654911681122E-1   -3.533055583228996E-1   -4.038376097305951E-1   -3.493987717836946E-1   -2.031901500018117E-1   -3.557441775157019E-1
                        -1.802483493223875E-1   -3.529702248037076E-1   -1.188349515253085E-1    6.284504563748141E-1   -1.976797798986322E-1   -3.355366685302144E-1   -4.027860222161279E-1   -3.191363706604629E-1
                        -4.037962819821700E-1   -3.503256310072484E-1   -1.972961057929035E-1   -3.357096468435487E-1   -1.417205036490898E-1    6.346333287123808E-1   -1.874475324152556E-1   -3.457656997354012E-1
                        -2.023786960050858E-1   -3.559422459407470E-1   -4.024445338741487E-1   -3.197357813012041E-1   -1.874528511525474E-1   -3.458299407189851E-1   -1.279217565532016E-1    6.193752094302821E-1

 1.400000000000000E9    -1.567020309630014E-1    6.721498729662962E-1   -1.906468780179768E-1   -3.461074579830954E-1   -4.206561520712456E-1   -3.343511981590990E-1   -2.129610288954469E-1   -3.477038674648270E-1
                        -1.907842819080161E-1   -3.455606179918100E-1   -9.571657780833875E-2    6.332546090176721E-1   -2.064174548772258E-1   -3.246963571088123E-1   -4.208838703352057E-1   -3.015933390594879E-1
                        -4.202315935507144E-1   -3.352734912719463E-1   -2.063851512869641E-1   -3.254122833613751E-1   -1.174531226636902E-1    6.448765946154458E-1   -1.980524946095662E-1   -3.353492107747836E-1
                        -2.124646701206335E-1   -3.478515658899671E-1   -4.204585558983383E-1   -3.026338605765216E-1   -1.978093219355733E-1   -3.348343460286249E-1   -1.050417144423008E-1    6.252593718219098E-1

 1.425000000000000E9    -1.330369583162886E-1    6.731464625501213E-1   -2.024094018553817E-1   -3.372594047507157E-1   -4.408255259506015E-1   -3.169226031938109E-1   -2.237906008076080E-1   -3.387112637790421E-1
                        -2.025575441618259E-1   -3.375930413392696E-1   -6.949333198448666E-2    6.360366289481907E-1   -2.154201727877000E-1   -3.168054997148209E-1   -4.370709043111995E-1   -2.842126362160434E-1
                        -4.401488711463101E-1   -3.175662018597268E-1   -2.150374001728746E-1   -3.171982725316938E-1   -9.591779071066163E-2    6.498346923787272E-1   -2.082558917367582E-1   -3.274488334015467E-1
                        -2.235484650399719E-1   -3.389250319358142E-1   -4.373238858942712E-1   -2.842617338703588E-1   -2.082992325694540E-1   -3.274068478996408E-1   -8.087111925574542E-2    6.283245971449963E-1

 1.450000000000000E9    -9.843778489687641E-2    6.762749504157134E-1   -2.156704463121074E-1   -3.279862083715490E-1   -4.606618628688916E-1   -2.967152670704160E-1   -2.363037828160489E-1   -3.287652266998945E-1
                        -2.157985960230715E-1   -3.278460517018413E-1   -4.394669937298222E-2    6.370660138677428E-1   -2.244086490229282E-1   -3.083982521957530E-1   -4.539410367321626E-1   -2.652791239919096E-1
                        -4.607567173444637E-1   -2.972027858025432E-1   -2.241873020219783E-1   -3.087989892846952E-1   -7.114272140302559E-2    6.486900901571527E-1   -2.194405497362177E-1   -3.188408012395000E-1
                        -2.357331984336368E-1   -3.295386135952197E-1   -4.538854233813542E-1   -2.660828545914905E-1   -2.190649992924833E-1   -3.189361538537823E-1   -5.679438439136553E-2    6.289118764761544E-1

 1.475000000000000E9    -6.739128263303083E-2    6.838011915637831E-1   -2.272075951354438E-1   -3.189773196398306E-1   -4.791107459734839E-1   -2.770555989940801E-1   -2.467387384694011E-1   -3.199094002172624E-1
                        -2.268633426524453E-1   -3.185811411217456E-1   -1.752447052959145E-2    6.374413217565873E-1   -2.327585156491208E-1   -2.988049271767146E-1   -4.705378727449643E-1   -2.440696338549692E-1
                        -4.787684090680241E-1   -2.777349197798771E-1   -2.329114284237453E-1   -2.987759960570813E-1   -4.362579045183390E-2    6.496897530628020E-1   -2.302319067863518E-1   -3.086519676651819E-1
                        -2.459352636359904E-1   -3.203029045654387E-1   -4.703358436013392E-1   -2.446045387652402E-1   -2.300180548138369E-1   -3.089460340490571E-1   -3.189542719080810E-2    6.280767484170399E-1

 1.500000000000000E9    -4.256534113118986E-2    6.914548390027818E-1   -2.369302513980148E-1   -3.089189281839060E-1   -4.956030954609114E-1   -2.565217078093679E-1   -2.553661532193211E-1   -3.100456957220075E-1
                        -2.368371461504798E-1   -3.084942322783004E-1    7.422913529845018E-3    6.378351115664472E-1   -2.404187685482889E-1   -2.878703714018511E-1   -4.855817307984988E-1   -2.222045629562921E-1
                        -4.952216243584590E-1   -2.572094418987008E-1   -2.405494425769151E-1   -2.882278165405793E-1   -1.693695282264765E-2    6.516149318757806E-1   -2.396664110788120E-1   -2.976658015145220E-1
                        -2.544455593101436E-1   -3.104633585288410E-1   -4.857235291963233E-1   -2.230274620454927E-1   -2.396459410604642E-1   -2.976017353610816E-1   -5.714131613229407E-3    6.261432241080063E-1

 1.525000000000000E9    -1.975906647693327E-2    6.948246597096063E-1   -2.473698856067695E-1   -2.988053745388943E-1   -5.144856021183454E-1   -2.349355471054578E-1   -2.647610441908393E-1   -3.003655788336588E-1
                        -2.472550173710975E-1   -2.983976858426818E-1    3.438330540735985E-2    6.348146403971114E-1   -2.473001486292895E-1   -2.784800424604826E-1   -5.003814875490897E-1   -1.999428073495339E-1
                        -5.140544973253884E-1   -2.356936134251849E-1   -2.469305079037974E-1   -2.786472041277926E-1    9.201892144813839E-3    6.516235121466495E-1   -2.496251992391029E-1   -2.872890797929314E-1
                        -2.641363375629588E-1   -3.012551774504744E-1   -5.002438144031386E-1   -2.004592763368921E-1   -2.493214634882688E-1   -2.870225358543716E-1    2.152097159538129E-2    6.251174832228588E-1

