! Created Mon Sep 11 13:56:52 2023
# hz S ma R 50
! 4 Port Network Data from SP1.SP block
! freq  magS11  angS11  magS12  angS12  magS13  angS13  magS14  angS14  
!       magS21  angS21  magS22  angS22  magS23  angS23  magS24  angS24  
!       magS31  angS31  magS32  angS32  magS33  angS33  magS34  angS34  
!       magS41  angS41  magS42  angS42  magS43  angS43  magS44  angS44  
!     
2e+09       0.300014439         110.400812        0.663738205         79.4964756        0.470964218         45.5654474        0.482174579        -127.816155
                      0.663738205         79.4964756        0.394921736          97.327816        0.427577461        -136.786633        0.453080487         48.6943304
                      0.470964218         45.5654474        0.427577461        -136.786633        0.484621164         120.408641        0.589263686         164.323681
                      0.482174579        -127.816155        0.453080487         48.6943304        0.589263686         164.323681         0.44885765         129.151436

2.005e+09        0.29898483         110.052887        0.664911419         78.8188717        0.471333767         44.7863021        0.480764385         -128.48037
                      0.664911419         78.8188717        0.394235274         96.8336246        0.425471837        -137.463403        0.453857996         47.9178894
                      0.471333767         44.7863021        0.425471837        -137.463403        0.484022388         119.834552        0.590932794          163.91156
                      0.480764385         -128.48037        0.453857996         47.9178894        0.590932794          163.91156        0.447293351          128.47759

2.01e+09       0.297924847         109.703598        0.666115809         78.1401347        0.471705642         44.0054092        0.479316892        -129.147019
                      0.666115809         78.1401347        0.393502534         96.3359583        0.423333957        -138.142412        0.454643418         47.1386971
                      0.471705642         44.0054092        0.423333957        -138.142412        0.483370332          119.25874        0.592652604         163.497049
                      0.479316892        -129.147019        0.454643418         47.1386971        0.592652604         163.497049         0.44567433         127.798038

2.015e+09       0.296834306         109.353027        0.667351516         77.4602047        0.472079593         43.2227502        0.477831477        -129.816157
                      0.667351516         77.4602047        0.392722865         95.8348356        0.421163374        -138.823735        0.455436546         46.3567095
                      0.472079593         43.2227502        0.421163374        -138.823735        0.482664407         118.681209        0.594423138         163.080033
                      0.477831477        -129.816157        0.455436546         46.3567095        0.594423138         163.080033        0.443999836         127.112654

2.02e+09       0.295713039         109.001256        0.668618672         76.7790212         0.47245536         42.4383068        0.476307498        -130.487843
                      0.668618672         76.7790212        0.391895612         95.3302754        0.418959623        -139.507453        0.456237159         45.5718827
                       0.47245536         42.4383068        0.418959623        -139.507453        0.481904021         118.101963          0.5962444         162.660402
                      0.476307498        -130.487843        0.456237159         45.5718827          0.5962444         162.660402        0.442269111         126.421308

2.025e+09       0.294560889         108.648371          0.6699174         76.0965228        0.472832672         41.6520615        0.474744294        -131.162131
                        0.6699174         76.0965228        0.391020126         94.8222967        0.416722222        -140.193643        0.457045019         44.7841723
                      0.472832672         41.6520615        0.416722222        -140.193643        0.481088579          117.52101        0.598116372         162.238041
                      0.474744294        -131.162131        0.457045019         44.7841723        0.598116372         162.238041        0.440481395          125.72387

2.03e+09       0.293377719         108.294456        0.671247815         75.4126476        0.473211248         40.8639973        0.473141189         -131.83908
                      0.671247815         75.4126476        0.390095756         94.3109194        0.414450675        -140.882387        0.457859875         43.9935336
                      0.473211248         40.8639973        0.414450675        -140.882387        0.480217484         116.938357        0.600039016         161.812838
                      0.473141189         -131.83908        0.457859875         43.9935336        0.600039016         161.812838        0.438635921         125.020203

2.035e+09       0.292163403         107.939602        0.672610019         74.7273327        0.473590797         40.0740979        0.471497487        -132.518744
                      0.672610019         74.7273327        0.389121853         93.7961634        0.412144467        -141.573765        0.458681457         43.1999222
                      0.473590797         40.0740979        0.412144467        -141.573765        0.479290137         116.354015        0.602012272          161.38468
                      0.471497487        -132.518744        0.458681457         43.1999222        0.602012272          161.38468        0.436731917         124.310167

2.04e+09       0.290917832         107.583898        0.674004106         74.0405149        0.473971017         39.2823474        0.469812476         -133.20118
                      0.674004106         74.0405149         0.38809777         93.2780496         0.40980307         -142.26786        0.459509483         42.4032931
                      0.473971017         39.2823474         0.40980307         -142.26786        0.478305938         115.767997        0.604036054         160.953455
                      0.469812476         -133.20118        0.459509483         42.4032931        0.604036054         160.953455         0.43476861         123.593621

2.045e+09       0.289640913         107.227436        0.675430158           73.35213        0.474351594         38.4887311        0.468085424        -133.886444
                      0.675430158           73.35213        0.387022859         92.7565992        0.407425936        -142.964756         0.46034365         41.6036017
                      0.474351594         38.4887311        0.407425936        -142.964756        0.477264286         115.180318        0.606110254          160.51905
                      0.468085424        -133.886444         0.46034365         41.6036017        0.606110254          160.51905        0.432745222         122.870417

2.05e+09       0.288332569         106.870312        0.676888245         72.6621133        0.474732208         37.6932348        0.466315584         -134.57459
                      0.676888245         72.6621133        0.385896479         92.2318345        0.405012505        -143.664536         0.46118364         40.8008032
                      0.474732208         37.6932348        0.405012505        -143.664536        0.476164581         114.590993        0.608234736         160.081354
                      0.466315584         -134.57459         0.46118364         40.8008032        0.608234736         160.081354        0.430660974         122.140405

2.055e+09       0.286992739         106.512623        0.678378423         71.9703994        0.475112523         36.8958453        0.464502192        -135.265673
                      0.678378423         71.9703994        0.384717988         91.7037784        0.402562198        -144.367285        0.462029117         39.9948529
                      0.475112523         36.8958453        0.402562198        -144.367285        0.475006223         114.000044        0.610409337         159.640256
                      0.464502192        -135.265673        0.462029117         39.9948529        0.610409337         159.640256        0.428515087         121.403429

2.06e+09        0.28562138         106.154466        0.679900736         71.2769222        0.475492197         36.0965504        0.462644467        -135.959746
                      0.679900736         71.2769222        0.383486748         91.1724548        0.400074422        -145.073091        0.462879726         39.1857062
                      0.475492197         36.0965504        0.400074422        -145.073091        0.473788614         113.407491        0.612633866         159.195644
                      0.462644467        -135.959746        0.462879726         39.1857062        0.612633866         159.195644        0.426306781          120.65933

2.065e+09       0.284218465         105.795944        0.681455212         70.5816151        0.475870876         35.2953388        0.460741609        -136.656864
                      0.681455212         70.5816151        0.382202122         90.6378887        0.397548566         -145.78204        0.463735094         38.3733189
                      0.475870876         35.2953388        0.397548566         -145.78204         0.47251116          112.81336        0.614908101         158.747407
                      0.460741609        -136.656864        0.463735094         38.3733189        0.614908101         158.747407        0.424035278         119.907943

2.07e+09       0.282783986         105.437159        0.683041865         69.8844107        0.476248194         34.4922004        0.458792806        -137.357079
                      0.683041865         69.8844107        0.380863481         90.1001062        0.394984007        -146.494221        0.464594829          37.557647
                      0.476248194         34.4922004        0.394984007        -146.494221        0.471173267         112.217677         0.61723179         158.295437
                      0.458792806        -137.357079        0.464594829          37.557647         0.61723179         158.295437        0.421699801         119.149099

2.075e+09       0.281317952         105.078218        0.684660694         69.1852413        0.476623778         33.6871261        0.456797227        -138.060443
                      0.684660694         69.1852413        0.379470197         89.5591346        0.392380104        -147.209723        0.465458519         36.7386467
                      0.476623778         33.6871261        0.392380104        -147.209723        0.469774349         111.620475        0.619604646         157.839625
                      0.456797227        -138.060443        0.465458519         36.7386467        0.619604646         157.839625        0.419299577         118.382623

2.08e+09       0.279820389         104.719228        0.686311678         68.4840384        0.476997243         32.8801082        0.454754027        -138.767006
                      0.686311678         68.4840384        0.378021648         89.0150026        0.389736202        -147.928636        0.466325733         35.9162748
                      0.476997243         32.8801082        0.389736202        -147.928636        0.468313824         111.021785        0.622026351         157.379861
                      0.454754027        -138.767006        0.466325733         35.9162748        0.622026351         157.379861        0.416833839         117.608335

2.085e+09       0.278291345           104.3603         0.68799478         67.7807331        0.477368195         32.0711402        0.452662345        -139.476819
                       0.68799478         67.7807331        0.376517217         88.4677404        0.387051631        -148.651052        0.467196019         35.0904884
                      0.477368195         32.0711402        0.387051631        -148.651052        0.466791118         110.421646        0.624496549         156.916039
                      0.452662345        -139.476819        0.467196019         35.0904884        0.624496549         156.916039        0.414301825         116.826047

2.09e+09       0.276730882         104.001546        0.689709944          67.075256         0.47773623          31.260217        0.450521308         -140.18993
                      0.689709944          67.075256        0.374956293         87.9173797        0.384325708        -149.377063        0.468068902         34.2612455
                       0.47773623          31.260217        0.384325708        -149.377063        0.465205663         109.820098        0.627014847         156.448052
                      0.450521308         -140.18993        0.468068902         34.2612455        0.627014847         156.448052        0.411702781         116.035568

2.095e+09       0.275139086         103.643081        0.691457095         66.3675372        0.478100934         30.4473348        0.448330028        -140.906387
                      0.691457095         66.3675372        0.373338272         87.3639541        0.381557733        -150.106762         0.46894389         33.4285043
                      0.478100934         30.4473348        0.381557733        -150.106762          0.4635569         109.217185        0.629580816         155.975796
                      0.448330028        -140.906387         0.46894389         33.4285043        0.629580816         155.975796        0.409035964         115.236697

2.1e+09       0.273516058         103.285023        0.693236135         65.6575063        0.478461886         29.6324916        0.446087604        -141.626237
                      0.693236135         65.6575063        0.371662557         86.8074989        0.378746997        -150.840244        0.469820466         32.5922242
                      0.478461886         29.6324916        0.378746997        -150.840244        0.461844284         108.612955        0.632193982         155.499165
                      0.446087604        -141.626237        0.469820466         32.5922242        0.632193982         155.499165         0.40630064         114.429229

2.105e+09        0.27186192         102.927492        0.695046946         64.9450925        0.478818654         28.8156866        0.443793122        -142.349524
                      0.695046946         64.9450925         0.36992856         86.2480516        0.375892775        -151.577605        0.470698093         31.7523651
                      0.478818654         28.8156866        0.375892775        -151.577605        0.460067278         108.007461        0.634853835         155.018058
                      0.443793122        -142.349524        0.470698093         31.7523651        0.634853835         155.018058         0.40349609         113.612949

2.11e+09       0.270176816         102.570609        0.696889386          64.230225          0.4791708         27.9969211        0.441445658        -143.076292
                      0.696889386          64.230225        0.368135701         85.6856517        0.372994331        -152.318941         0.47157621         30.9088878
                        0.4791708         27.9969211        0.372994331        -152.318941        0.458225359          107.40076        0.637559817         154.532373
                      0.441445658        -143.076292         0.47157621         30.9088878        0.637559817         154.532373        0.400621608         112.787634

2.115e+09       0.268460906         102.214499         0.69876329         63.5128322        0.479517875         27.1761978        0.439044277        -143.806582
                       0.69876329         63.5128322         0.36628341          85.120341        0.370050915         -153.06435        0.472454234         30.0617544
                      0.479517875         27.1761978        0.370050915         -153.06435         0.45631802         106.792912        0.640311329          154.04201
                      0.439044277        -143.806582        0.472454234         30.0617544        0.640311329          154.04201        0.397676509         111.953053

2.12e+09       0.266714372         101.859288        0.700668467         62.7928425        0.479859427         26.3535214        0.436588034        -144.540434
                      0.700668467         62.7928425        0.364371129         84.5521639        0.367061769         -153.81393        0.473331561         29.2109278
                      0.479859427         26.3535214        0.367061769         -153.81393        0.454344771         106.183983        0.643107722         153.546871
                      0.436588034        -144.540434        0.473331561         29.2109278        0.643107722         153.546871        0.394660124         111.108967

2.125e+09       0.264937414         101.505106        0.702604699         62.0701841        0.480194993         25.5288985        0.434075976        -145.277887
                      0.702604699         62.0701841        0.362398311         83.9811674        0.364026122        -154.567781        0.474207561         28.3563723
                      0.480194993         25.5288985        0.364026122        -154.567781        0.452305138         105.574044        0.645948303         153.046859
                      0.434075976        -145.277887        0.474207561         28.3563723        0.645948303         153.046859        0.391571808         110.255125

2.13e+09       0.263130254         101.152085        0.704571743          61.344785        0.480524105         24.7023375        0.431507141        -146.018975
                      0.704571743          61.344785         0.36036442         83.4074012        0.360943197        -155.326004        0.475081582         27.4980533
                      0.480524105         24.7023375        0.360943197        -155.326004        0.450198668         104.963172        0.648832326         152.541879
                      0.431507141        -146.018975        0.475081582         27.4980533        0.648832326         152.541879         0.38841094         109.391267

2.135e+09       0.261293132         100.800356        0.706569324         60.6165731        0.480846291          23.873849        0.428880564        -146.763733
                      0.706569324         60.6165731        0.358268936         82.8309183        0.357812204        -156.088701        0.475952948         26.6359379
                      0.480846291          23.873849        0.357812204        -156.088701        0.448024932         104.351447        0.651758996          152.03184
                      0.428880564        -146.763733        0.475952948         26.6359379        0.651758996          152.03184        0.385176926          108.51712

2.14e+09       0.259426308         100.450057        0.708597139         59.8854764        0.481161071         23.0434457        0.426195272        -147.512191
                      0.708597139         59.8854764        0.356111353         82.2517747        0.354632348        -156.855976         0.47682096         25.7699943
                      0.481161071         23.0434457        0.354632348        -156.855976         0.44578352         103.738958        0.654727465         151.516649
                      0.426195272        -147.512191         0.47682096         25.7699943        0.654727465         151.516649        0.381869203         107.632401

2.145e+09       0.257530062         100.101324        0.710654854         59.1514227        0.481467964         22.2111424        0.423450289        -148.264378
                      0.710654854         59.1514227         0.35389118         81.6700298        0.351402828        -157.627932        0.477684895         24.9001927
