! Created Sat Sep  9 23:06:40 2023
# hz S ma R 50
! 4 Port Network Data from SP1.SP block
! freq  magS11  angS11  magS12  angS12  magS13  angS13  magS14  angS14  
!       magS21  angS21  magS22  angS22  magS23  angS23  magS24  angS24  
!       magS31  angS31  magS32  angS32  magS33  angS33  magS34  angS34  
!       magS41  angS41  magS42  angS42  magS43  angS43  magS44  angS44  
!     
1e+09       0.609449558         156.948055        0.433440976        -60.5724853        0.492208604        -74.2241052        0.440917698        -62.4491518
                      0.433440976        -60.5724853        0.614875411         156.760104        0.433310985        -62.0289559        0.492208604        -74.2241052
                      0.492208604        -74.2241052        0.433310985        -62.0289559        0.614875411         156.760104        0.433440976        -60.5724853
                      0.440917698        -62.4491518        0.492208604        -74.2241052        0.433440976        -60.5724853        0.609449558         156.948055

1.025e+09        0.61231645         155.927608        0.430948584        -61.9807778        0.492765455        -76.0489799        0.438664627        -63.8822812
                      0.430948584        -61.9807778        0.617976355         155.724579        0.430646157        -63.4358468        0.492765455        -76.0489799
                      0.492765455        -76.0489799        0.430646157        -63.4358468        0.617976355         155.724579        0.430948584        -61.9807778
                      0.438664627        -63.8822812        0.492765455        -76.0489799        0.430948584        -61.9807778         0.61231645         155.927608

1.05e+09       0.615066993         154.885579        0.428461877        -63.3853248        0.493422033        -77.8765585        0.436410043        -65.3082798
                      0.428461877        -63.3853248        0.620966315         154.667106        0.427965621        -64.8338395        0.493422033        -77.8765585
                      0.493422033        -77.8765585        0.427965621        -64.8338395        0.620966315         154.667106        0.428461877        -63.3853248
                      0.436410043        -65.3082798        0.493422033        -77.8765585        0.428461877        -63.3853248        0.615066993         154.885579

1.075e+09       0.617693831         153.821801        0.425983848        -64.7865119        0.494184479        -79.7074972        0.434156077         -66.727135
                      0.425983848        -64.7865119        0.623838232         153.587521        0.425271036        -66.2227736        0.494184479        -79.7074972
                      0.494184479        -79.7074972        0.425271036        -66.2227736        0.623838232         153.587521        0.425983848        -64.7865119
                      0.434156077         -66.727135        0.494184479        -79.7074972        0.425983848        -64.7865119        0.617693831         153.821801

1.1e+09       0.620189504         152.736045        0.423517435        -66.1847643        0.495059195         -81.542501        0.431904811        -68.1388278
                      0.423517435        -66.1847643        0.626584974         152.485595        0.422563982        -67.6024667        0.495059195         -81.542501
                      0.495059195         -81.542501        0.422563982        -67.6024667        0.626584974         152.485595        0.423517435        -66.1847643
                      0.431904811        -68.1388278        0.495059195         -81.542501        0.423517435        -66.1847643        0.620189504         152.736045

1.125e+09       0.622546399         151.628012         0.42106552        -67.5805505        0.496052873        -83.3823268        0.429658286        -69.5433293
                       0.42106552        -67.5805505        0.629199281         151.361027         0.41984597        -68.9727104        0.496052873        -83.3823268
                      0.496052873        -83.3823268         0.41984597        -68.9727104        0.629199281         151.361027         0.42106552        -67.5805505
                      0.429658286        -69.5433293        0.496052873        -83.3823268         0.42106552        -67.5805505        0.622546399         151.628012

1.15e+09       0.624756685         150.497328        0.418630927        -68.9743853        0.497172521         -85.227788         0.42741851        -70.9405989
                      0.418630927        -68.9743853        0.631673709         150.213443         0.41711845        -70.3332653        0.497172521         -85.227788
                      0.497172521         -85.227788         0.41711845        -70.3332653        0.631673709         150.213443        0.418630927        -68.9743853
                       0.42741851        -70.9405989        0.497172521         -85.227788        0.418630927        -68.9743853        0.624756685         150.497328

1.175e+09       0.626812249          149.34354        0.416216421        -70.3668346        0.498425495        -87.0797578        0.425187468        -72.3305804
                      0.416216421        -70.3668346        0.634000562         149.042384        0.414382824        -71.6838556        0.498425495        -87.0797578
                      0.498425495        -87.0797578        0.414382824        -71.6838556        0.634000562         149.042384        0.416216421        -70.3668346
                      0.425187468        -72.3305804        0.498425495        -87.0797578        0.416216421        -70.3668346        0.626812249          149.34354

1.2e+09       0.628704626         148.166107          0.4138247        -71.7585201        0.499819534         -88.939175        0.422967139        -73.7131989
                        0.4138247        -71.7585201        0.636171829         147.847304        0.411640462        -73.0241627        0.499819534         -88.939175
                      0.499819534         -88.939175        0.411640462        -73.0241627        0.636171829         147.847304          0.4138247        -71.7585201
                      0.422967139        -73.7131989        0.499819534         -88.939175          0.4138247        -71.7585201        0.628704626         148.166107

1.225e+09       0.630424918         146.964394        0.411458391        -73.1501249        0.501362796         -90.807049        0.420759514        -75.0883567
                      0.411458391        -73.1501249          0.6381791         146.627561        0.408892721        -74.3538184        0.501362796         -90.807049
                      0.501362796         -90.807049        0.408892721        -74.3538184          0.6381791         146.627561        0.411458391        -73.1501249
                      0.420759514        -75.0883567        0.501362796         -90.807049        0.411458391        -73.1501249        0.630424918         146.964394

1.25e+09        0.63196371         145.737664        0.409120046        -74.5423995        0.503063898        -92.6844662        0.418566614        -76.4559288
                      0.409120046        -74.5423995        0.640013483         145.382408        0.406140975        -75.6723968        0.503063898        -92.6844662
                      0.503063898        -92.6844662        0.406140975        -75.6723968        0.640013483         145.382408        0.409120046        -74.5423995
                      0.418566614        -76.4559288        0.503063898        -92.6844662        0.409120046        -74.5423995         0.63196371         145.737664

1.275e+09       0.633310971         144.485068        0.406812126        -75.9361697        0.504931959        -94.5725966        0.416390517        -77.8157578
                      0.406812126        -75.9361697        0.641665513         144.110986        0.403386637        -76.9794055        0.504931959        -94.5725966
                      0.504931959        -94.5725966        0.403386637        -76.9794055        0.641665513         144.110986        0.406812126        -75.9361697
                      0.416390517        -77.8157578        0.504931959        -94.5725966        0.406812126        -75.9361697        0.633310971         144.485068

1.3e+09        0.63445595         143.205637         0.40453699        -77.3323441        0.506976649        -96.4727024        0.414233394        -79.1676486
                       0.40453699        -77.3323441        0.643125044         142.812312        0.400631208        -78.2742751        0.506976649        -96.4727024
                      0.506976649        -96.4727024        0.400631208        -78.2742751        0.643125044         142.812312         0.40453699        -77.3323441
                      0.414233394        -79.1676486        0.506976649        -96.4727024         0.40453699        -77.3323441         0.63445595         143.205637

1.325e+09       0.635387052         141.898268        0.402296874        -78.7319241        0.509208237        -98.3861464         0.41209754        -80.5113614
                      0.402296874        -78.7319241         0.64438113         141.485269        0.397876317        -79.5563478        0.509208237        -98.3861464
                      0.509208237        -98.3861464        0.397876317        -79.5563478         0.64438113         141.485269        0.402296874        -78.7319241
                       0.41209754        -80.5113614        0.509208237        -98.3861464        0.402296874        -78.7319241        0.635387052         141.898268

1.35e+09       0.636091708         140.561713        0.400093867        -80.1360143        0.511637645        -100.314402        0.409985429        -81.8466048
                      0.400093867        -80.1360143        0.645421894         140.128592        0.395123787        -80.8248641        0.511637645        -100.314402
                      0.511637645        -100.314402        0.395123787        -80.8248641        0.645421894         140.128592        0.400093867        -80.1360143
                      0.409985429        -81.8466048        0.511637645        -100.314402        0.400093867        -80.1360143        0.636091708         140.561713

1.375e+09       0.636556219         139.194564        0.397929883         -81.545835        0.514276509        -102.259065        0.407899767        -83.1730279
                      0.397929883         -81.545835        0.646234382         138.740855        0.392375706        -82.0789485        0.514276509        -102.259065
                      0.514276509        -102.259065        0.392375706        -82.0789485        0.646234382         138.740855        0.397929883         -81.545835
                      0.407899767        -83.1730279        0.514276509        -102.259065        0.397929883         -81.545835        0.636556219         139.194564

1.4e+09       0.636765588         137.795238        0.395806612        -82.9627356        0.517137234        -104.221866        0.405843568        -84.4902108
                      0.395806612        -82.9627356        0.646804385          137.32045        0.389634522        -83.3175921        0.517137234        -104.221866
                      0.517137234        -104.221866        0.389634522        -83.3175921        0.646804385          137.32045        0.395806612        -82.9627356
                      0.405843568        -84.4902108        0.517137234        -104.221866        0.395806612        -82.9627356        0.636765588         137.795238

1.425e+09       0.636703324         136.361953        0.393725473        -84.3882108        0.520233062        -106.204687         0.40382024        -85.7976549
                      0.393725473        -84.3882108        0.647116254         135.865576         0.38690316        -84.5396347        0.520233062        -106.204687
                      0.520233062        -106.204687         0.38690316        -84.5396347        0.647116254         135.865576        0.393725473        -84.3882108
                       0.40382024        -85.7976549        0.520233062        -106.204687        0.393725473        -84.3882108        0.636703324         136.361953

1.45e+09        0.63635122         134.892713        0.391687544        -85.8239184        0.523578134        -108.209573        0.401833694        -87.0947717
                      0.391687544        -85.8239184        0.647152675         134.374209        0.384185165         -85.743744        0.523578134        -108.209573
                      0.523578134        -108.209573        0.384185165         -85.743744        0.647152675         134.374209        0.391687544        -85.8239184
                      0.401833694        -87.0947717        0.523578134        -108.209573        0.391687544        -85.8239184         0.63635122         134.892713

1.475e+09       0.635689096         133.385277        0.389693477        -87.2716997        0.527187557        -110.238758        0.399888483        -88.3808708
                      0.389693477        -87.2716997        0.646894412         132.844079        0.381484884        -86.9283926        0.527187557        -110.238758
                      0.527187557        -110.238758        0.381484884        -86.9283926        0.646894412         132.844079        0.389693477        -87.2716997
                      0.399888483        -88.3808708        0.527187557        -110.238758        0.389693477        -87.2716997        0.635689096         133.385277

1.5e+09       0.634694513         131.837136        0.387743387        -88.7336022        0.531077471         -112.29468        0.397989965        -89.6551473
                      0.387743387        -88.7336022        0.646320022         131.272646        0.378807693        -88.0918339        0.531077471         -112.29468
                      0.531077471         -112.29468        0.378807693        -88.0918339        0.646320022         131.272646        0.387743387        -88.7336022
                      0.397989965        -89.6551473        0.531077471         -112.29468        0.387743387        -88.7336022        0.634694513         131.837136

1.525e+09       0.633342432         130.245475        0.385836713        -90.2119058        0.535265108        -114.380011        0.396144518         -90.916668
                      0.385836713        -90.2119058        0.645405512         129.657061        0.376160279        -89.2320764        0.535265108        -114.380011
                      0.535265108        -114.380011        0.376160279        -89.2320764        0.645405512         129.657061        0.385836713        -90.2119058
                      0.396144518         -90.916668        0.535265108        -114.380011        0.385836713        -90.2119058        0.633342432         130.245475

1.55e+09       0.631604833         128.607136        0.383972046        -91.7091517        0.539768846        -116.497679        0.394359794        -92.1643585
                      0.383972046        -91.7091517        0.644123954          127.99413        0.373550996        -90.3468566        0.539768846        -116.497679
                      0.539768846        -116.497679        0.373550996        -90.3468566        0.644123954          127.99413        0.383972046        -91.7091517
                      0.394359794        -92.1643585        0.539768846        -116.497679        0.383972046        -91.7091517        0.631604833         128.607136

1.575e+09       0.629450267         126.918574        0.382146902        -93.2281746        0.544608255        -118.650904        0.392645048        -93.3969909
                      0.382146902        -93.2281746        0.642445025         126.280269         0.37099031        -91.4336146        0.544608255        -118.650904
                      0.544608255        -118.650904         0.37099031        -91.4336146        0.642445025         126.280269        0.382146902        -93.2281746
                      0.392645048        -93.3969909        0.544608255        -118.650904        0.382146902        -93.2281746        0.629450267         126.918574

1.6e+09       0.626843343         125.175806        0.380357447        -94.7721392        0.549804111        -120.843232        0.391011536        -94.6131734
                      0.380357447        -94.7721392         0.64033449         124.511454        0.368491348        -92.4894708        0.549804111        -120.843232
                      0.549804111        -120.843232        0.368491348        -92.4894708         0.64033449         124.511454        0.380357447        -94.7721392
                      0.391011536        -94.6131734        0.549804111        -120.843232        0.380357447        -94.7721392        0.626843343         125.175806

1.625e+09       0.623744128         123.374349        0.378598142        -96.3445789        0.555378397        -123.078578        0.389473023        -95.8113454
                      0.378598142        -96.3445789        0.637753586         122.683159        0.366070595        -93.5112113        0.555378397        -123.078578
                      0.555378397        -123.078578        0.366070595        -93.5112113        0.637753586         122.683159        0.378598142        -96.3445789
                      0.389473023        -95.8113454        0.555378397        -123.078578        0.378598142        -96.3445789        0.623744128         123.374349

1.65e+09       0.620107469         121.509149          0.3768613        -97.9494388        0.561354244        -125.361268          0.3880464        -96.9897789
                        0.3768613        -97.9494388        0.634658314         120.790288        0.363748751        -94.4952849        0.561354244        -125.361268
                      0.561354244        -125.361268        0.363748751        -94.4952849        0.634658314         120.790288          0.3768613        -97.9494388
                        0.3880464        -96.9897789        0.561354244        -125.361268          0.3768613        -97.9494388        0.620107469         121.509149

1.675e+09       0.615882188         119.574501        0.375136525        -99.5911206        0.567755824        -127.696096         0.38675246        -98.1465938
                      0.375136525        -99.5911206        0.630998612         118.827093        0.361551796        -95.4378202        0.567755824        -127.696096
                      0.567755824        -127.696096        0.361551796        -95.4378202        0.630998612         118.827093        0.375136525        -99.5911206
                       0.38675246        -98.1465938        0.567755824        -127.696096        0.375136525        -99.5911206        0.615882188         119.574501

1.7e+09        0.61101018         117.563946        0.373410015        -101.274528        0.574608143        -130.088379        0.385616848        -99.2797916
                      0.373410015        -101.274528        0.626717404          116.78708        0.359512305        -96.3346755        0.574608143        -130.088379
                      0.574608143        -130.088379        0.359512305        -96.3346755        0.626717404          116.78708        0.373410015        -101.274528
                      0.385616848        -99.2797916        0.574608143        -130.088379        0.373410015        -101.274528         0.61101018         117.563946

1.725e+09       0.605425361         115.470164        0.371663679        -103.005114        0.581936721        -132.544026        0.384671233        -100.387317
                      0.371663679        -103.005114        0.621749492         114.662897        0.357671045        -97.1815375        0.581936721        -132.544026
