freq,W1,W2,W3,W4,W5,W6,W7,W8,L1,L2,L3,L4,S11r,S11i,S21r,S21i,S31r,S31i,S41r,S41i
2.6,1.3,3.1,2.0,2.1,3.1,2.0,3.9,1.0,29.3,77.7,42.3,21.4,-0.461,0.367,-0.187,-0.443,0.241,0.52,-0.224,-0.155
2.6,1.5,3.8,1.5,3.1,3.8,1.7,3.8,1.1,83.6,54.6,37.4,77.2,-0.278,0.476,0.307,0.35,-0.3,-0.388,-0.17,-0.431
2.6,3.3,3.4,4.9,2.2,3.9,3.7,2.3,3.8,66.5,76.2,72.4,87.5,-0.558,0.234,0.051,-0.528,0.068,-0.497,0.254,-0.123
2.6,4.8,1.8,2.7,3.4,3.1,2.5,1.5,4.0,61.2,52.1,17.0,79.9,0.001,-0.203,0.482,0.275,0.616,-0.185,0.451,0.034
2.6,1.9,1.9,2.8,4.8,4.0,3.9,1.2,1.6,46.2,52.8,71.9,40.3,0.187,0.824,0.28,0.018,-0.248,-0.263,-0.092,0.169
2.6,3.8,1.9,4.7,4.4,1.3,2.1,4.8,3.4,47.1,74.9,58.2,55.7,-0.602,0.354,0.059,-0.331,0.217,0.062,0.074,0.571
2.6,4.3,2.4,3.8,3.7,3.6,2.3,3.7,2.8,65.2,25.0,57.3,69.3,-0.475,-0.319,-0.343,0.447,0.261,-0.205,0.348,-0.306
2.6,1.6,1.8,2.4,4.9,1.4,1.3,4.4,2.3,14.5,29.6,76.5,58.0,-0.415,0.34,-0.381,-0.063,-0.346,-0.008,-0.489,-0.435
2.6,3.9,2.2,4.2,4.4,1.9,4.7,3.4,2.0,63.1,35.4,26.0,31.7,-0.635,-0.13,-0.066,0.694,0.031,-0.137,0.112,-0.197
2.6,2.3,2.7,3.7,1.1,4.2,1.7,1.6,2.3,70.3,99.8,25.3,96.6,-0.205,0.24,-0.425,0.309,-0.414,-0.173,0.535,-0.314
2.6,2.5,3.4,3.8,2.1,3.9,1.2,3.5,4.5,29.2,59.0,83.5,90.5,-0.354,0.45,0.526,0.243,0.184,0.065,-0.528,-0.002
2.6,2.3,1.4,3.4,3.9,4.7,1.3,4.3,2.3,87.3,40.7,40.5,71.1,-0.332,0.446,0.042,0.447,-0.146,-0.427,-0.044,-0.512
2.6,3.3,4.3,2.0,2.5,4.7,2.7,4.6,3.7,33.1,93.2,65.3,90.1,-0.097,0.038,-0.448,0.232,0.056,0.086,-0.779,0.265
2.6,3.4,3.7,4.0,1.5,1.6,3.7,2.0,1.6,16.4,40.1,18.1,51.0,-0.255,0.369,-0.195,0.361,0.667,0.107,-0.216,-0.338
2.6,3.5,3.9,4.6,2.2,3.0,1.7,1.1,2.1,73.8,36.3,10.0,4.5,-0.176,0.405,-0.498,0.239,0.261,-0.212,0.551,-0.258
2.6,1.2,3.8,1.5,2.7,3.6,4.1,3.5,2.4,9.9,79.8,36.0,13.2,0.091,0.57,0.163,-0.423,-0.261,0.408,0.445,0.003
2.6,3.6,3.3,3.6,1.6,2.5,1.6,1.5,2.1,77.9,25.6,5.0,90.4,-0.351,0.398,-0.571,-0.191,-0.431,-0.103,0.24,-0.292
2.6,4.6,2.6,1.2,1.1,2.5,2.0,4.8,1.9,87.5,41.6,44.9,20.7,-0.389,0.629,-0.018,0.229,-0.269,-0.374,-0.273,-0.294
2.6,4.8,4.1,2.8,4.9,4.7,4.4,1.9,4.3,65.5,6.4,37.3,62.8,-0.593,0.223,-0.175,-0.455,0.188,0.461,0.195,0.247
2.6,3.9,1.6,5.0,4.1,4.9,4.6,1.8,1.4,86.5,44.3,77.4,18.3,-0.236,0.086,-0.154,0.498,-0.286,0.462,-0.165,-0.563
2.6,1.1,2.4,3.6,1.4,3.8,3.6,2.3,3.2,7.1,7.9,15.3,95.4,0.064,0.694,0.051,-0.183,-0.601,-0.028,0.161,-0.279
2.6,1.3,3.2,2.3,4.6,2.8,3.3,3.3,3.3,17.2,16.2,47.3,82.3,-0.429,0.189,-0.343,-0.52,0.057,-0.018,-0.237,-0.558
2.6,4.2,2.8,2.7,2.8,4.3,3.4,4.0,1.0,98.4,82.5,32.1,32.9,-0.506,0.093,-0.374,-0.413,0.158,0.444,-0.151,-0.39
2.6,4.1,4.1,3.3,3.3,4.3,1.6,2.7,4.8,15.6,14.1,23.1,7.4,0.262,0.324,-0.486,-0.397,-0.614,0.197,-0.043,-0.022
2.6,4.2,3.7,4.5,4.6,1.5,3.7,3.5,1.6,65.5,72.5,78.4,81.1,-0.525,0.092,0.14,-0.49,0.203,-0.501,0.364,-0.074
2.6,2.1,4.1,2.5,1.5,4.7,3.4,4.4,4.7,11.7,60.5,84.0,19.0,-0.452,0.484,0.403,0.337,-0.029,-0.076,-0.416,-0.296
2.6,3.2,4.8,1.3,1.4,1.7,1.2,1.2,2.5,65.8,90.8,19.2,90.1,-0.531,0.299,-0.456,-0.47,-0.037,0.022,0.323,0.271
2.6,3.2,4.1,3.9,1.5,3.4,4.9,3.5,3.3,47.3,35.5,98.2,93.2,-0.213,0.397,-0.503,0.288,0.596,-0.09,0.027,0.268
2.6,1.0,3.1,2.7,2.8,4.5,1.6,1.5,1.1,65.6,26.7,38.5,44.8,-0.619,0.655,-0.238,-0.13,0.132,0.085,0.238,0.117
2.6,2.3,4.4,2.1,2.5,3.5,3.7,4.7,3.4,29.5,69.4,49.8,96.0,-0.682,0.391,0.135,-0.216,0.266,0.423,-0.169,-0.142
2.6,1.8,1.5,1.4,3.0,4.2,4.3,1.8,3.4,46.5,96.7,89.0,39.1,0.099,0.575,-0.342,-0.446,-0.244,-0.376,0.118,0.315
2.6,3.0,1.1,4.7,2.9,4.4,2.8,4.4,3.9,91.1,13.4,71.3,18.8,0.083,0.352,-0.465,0.194,-0.354,0.253,-0.422,-0.463
2.6,4.8,2.8,1.5,3.5,4.9,2.6,4.5,2.9,49.5,65.1,87.5,12.2,-0.205,-0.375,0.616,-0.091,0.248,-0.545,-0.127,-0.11
2.6,2.3,4.6,3.0,2.4,2.9,4.3,3.8,2.4,34.7,50.7,84.6,7.4,-0.512,0.577,0.294,0.319,0.188,0.289,-0.291,0.03
2.6,4.8,4.5,3.7,4.5,2.8,4.1,1.4,1.8,31.5,89.8,42.1,93.3,-0.56,0.248,-0.34,-0.324,0.366,0.316,-0.389,0.047
2.6,1.9,1.0,2.5,3.8,3.4,1.0,1.8,3.6,56.9,23.9,55.4,42.9,-0.242,0.059,-0.492,-0.397,-0.333,-0.094,0.444,0.449
2.6,4.9,4.2,1.8,2.2,2.4,2.5,2.6,1.2,95.6,12.2,50.4,91.1,-0.555,-0.035,-0.27,-0.527,0.181,0.131,-0.253,-0.456
2.6,4.0,1.2,4.8,3.9,4.8,4.0,3.6,3.7,99.3,21.6,99.8,53.9,-0.202,-0.088,-0.435,0.362,-0.044,-0.342,-0.684,0.061
2.6,2.7,3.8,2.1,4.6,3.6,4.7,1.5,2.3,63.2,90.0,44.9,9.0,-0.151,-0.094,-0.225,-0.482,0.577,-0.128,0.513,-0.186
2.6,1.2,1.2,3.4,1.2,3.2,2.6,4.2,4.2,59.9,49.2,56.2,5.0,-0.355,0.294,0.373,0.474,0.234,0.096,0.428,0.395
2.6,2.2,4.1,1.7,4.9,3.1,3.4,4.1,2.6,6.7,79.2,45.8,73.5,0.212,0.667,0.57,-0.251,0.116,0.128,0.178,0.129
2.6,3.4,4.2,2.8,1.9,1.2,2.6,3.2,1.1,88.9,82.4,32.4,54.6,-0.484,0.343,-0.192,-0.368,-0.003,0.334,-0.237,-0.536
2.6,4.5,4.7,3.2,1.8,4.4,2.7,3.4,3.4,98.3,16.8,71.8,53.6,-0.692,0.054,-0.213,-0.294,-0.235,-0.348,-0.35,-0.258
2.6,4.1,3.9,3.6,4.1,3.6,3.1,1.2,3.3,68.0,70.5,96.0,70.1,-0.564,-0.049,0.299,-0.531,0.308,-0.132,0.334,-0.243
2.6,2.6,1.7,4.4,5.0,3.1,1.1,2.4,1.1,75.0,88.0,15.1,54.5,-0.529,0.156,0.039,-0.395,0.252,0.133,0.196,-0.627
2.6,2.8,1.4,2.5,3.2,4.1,4.6,1.1,5.0,40.8,5.9,84.3,12.7,-0.19,0.264,0.451,-0.348,0.158,0.32,-0.342,0.55
2.6,3.5,4.5,3.5,5.0,2.6,4.6,5.0,4.2,79.4,35.1,94.5,75.5,-0.266,0.061,-0.529,0.684,0.014,0.058,0.231,-0.25
2.6,1.6,2.7,3.5,3.2,4.5,3.4,4.4,1.2,46.2,80.9,32.9,96.5,-0.341,0.805,-0.228,-0.175,0.082,0.104,0.179,0.29
2.6,2.4,4.6,4.7,2.3,4.9,3.4,3.8,3.0,52.8,59.8,40.7,77.3,-0.779,0.315,0.23,0.111,-0.025,0.148,0.212,0.37
2.6,2.9,1.8,2.8,2.2,2.7,1.5,4.8,4.8,10.0,97.5,20.2,66.9,-0.066,0.59,-0.546,-0.32,0.146,-0.143,-0.234,-0.355
2.6,3.0,3.0,2.7,4.6,3.1,3.2,2.6,3.3,71.5,59.7,20.7,32.2,-0.57,0.342,0.498,0.198,-0.383,-0.062,0.317,-0.041
2.6,3.4,3.4,2.5,1.0,4.4,2.3,4.0,3.3,32.5,87.7,48.2,35.4,-0.208,0.235,-0.362,-0.02,0.632,-0.099,-0.564,0.13
2.6,4.7,4.6,1.9,2.8,1.9,1.9,2.0,1.8,63.4,21.5,85.1,49.7,-0.363,-0.018,-0.59,-0.218,-0.538,0.261,0.265,-0.154
2.6,1.9,4.6,1.4,4.8,1.2,2.0,2.8,1.1,66.8,28.9,63.2,58.3,-0.253,0.221,-0.568,0.252,-0.389,-0.301,0.443,-0.204
2.6,2.7,1.0,2.9,1.3,1.5,3.5,3.1,2.2,78.1,60.6,26.3,55.9,0.015,-0.038,0.162,-0.125,0.283,-0.087,0.482,-0.775
2.6,1.0,3.2,2.0,2.7,4.9,2.7,2.7,2.5,83.7,92.8,80.7,57.4,-0.317,0.333,-0.167,-0.568,-0.032,-0.19,-0.248,-0.55
2.6,4.5,4.4,2.2,1.4,4.6,2.5,1.3,4.0,48.3,17.4,99.0,22.3,-0.406,0.408,-0.445,-0.59,0.143,-0.014,0.144,0.261
2.6,1.1,3.2,4.3,3.8,4.0,3.2,1.6,3.9,9.7,21.0,33.5,69.9,0.148,0.746,-0.367,0.12,0.059,-0.313,-0.068,-0.382
2.6,4.5,3.4,4.1,2.2,1.4,3.6,2.1,1.8,40.1,40.8,16.8,91.5,-0.408,0.373,-0.077,0.343,0.523,0.354,-0.273,0.287
2.6,4.7,4.1,2.1,1.3,1.2,5.0,4.7,4.6,71.7,59.1,56.3,17.0,-0.247,0.07,0.462,0.122,-0.107,0.28,0.675,-0.368
2.6,3.1,4.4,1.4,1.5,4.6,1.8,2.4,1.3,62.5,31.2,94.5,7.3,-0.298,0.313,-0.595,0.179,0.369,0.182,0.449,0.196
2.6,1.0,3.7,1.4,4.5,1.2,3.9,3.3,3.8,5.0,95.1,80.5,59.2,-0.317,0.393,-0.216,-0.252,-0.204,0.049,-0.165,-0.737
2.6,1.3,4.0,2.3,2.2,3.0,4.6,4.7,2.5,80.5,24.8,25.2,75.5,0.244,0.72,-0.484,-0.013,-0.222,-0.197,0.127,-0.145
2.6,3.8,3.2,4.4,4.7,4.4,4.8,4.7,4.2,63.6,51.5,96.1,44.3,-0.333,0.376,0.556,0.203,-0.131,0.056,0.527,0.274
2.6,4.3,4.9,3.4,4.1,3.2,2.0,3.9,2.1,81.1,43.8,16.2,71.5,-0.028,0.053,-0.412,0.678,0.175,-0.362,0.205,-0.339
2.6,5.0,4.6,3.0,1.0,4.8,3.5,1.4,5.0,55.8,72.0,71.4,32.7,-0.747,-0.112,0.143,-0.569,0.136,-0.14,-0.094,0.079
2.6,4.0,2.9,3.8,3.5,2.0,4.8,1.6,3.2,84.7,44.1,17.4,31.0,-0.499,0.397,-0.026,0.471,0.058,0.301,-0.23,-0.457
2.6,3.5,3.2,2.5,3.4,2.2,3.5,2.3,2.7,92.8,73.7,74.9,91.4,-0.584,0.404,0.19,-0.203,0.21,-0.175,-0.346,-0.443
2.6,4.1,4.1,1.1,1.8,2.9,1.9,1.5,4.4,28.6,5.0,8.6,82.8,-0.289,0.177,0.3,-0.466,-0.44,-0.169,-0.572,-0.134
2.6,4.4,4.9,1.8,1.7,3.2,1.9,2.4,2.1,39.3,26.3,17.3,48.7,-0.244,0.455,-0.633,-0.086,-0.273,-0.155,-0.411,0.2
2.6,2.1,3.3,1.9,4.8,4.9,2.2,4.8,1.9,78.9,65.2,23.7,69.4,-0.596,0.301,0.166,0.024,-0.144,-0.456,-0.056,-0.518
2.6,2.9,4.7,3.0,1.3,1.1,1.5,2.7,4.8,18.6,28.5,51.4,46.4,-0.334,-0.039,-0.571,0.406,0.282,-0.389,-0.203,-0.325
2.6,2.3,2.1,2.3,1.8,3.7,3.4,3.4,4.9,81.9,14.3,4.7,9.7,-0.113,0.602,-0.326,-0.37,-0.348,-0.365,0.12,-0.309
2.6,2.0,2.7,2.7,2.0,2.3,4.8,4.3,3.5,13.7,67.2,15.7,63.2,-0.553,0.202,0.348,-0.098,-0.156,-0.535,-0.191,-0.396
2.6,3.0,4.9,1.5,2.4,1.2,4.7,3.2,1.3,53.1,94.0,14.3,29.4,-0.412,0.346,-0.428,-0.37,-0.234,0.139,0.512,0.179
2.6,1.7,4.4,1.4,2.0,1.1,4.9,1.6,1.9,74.4,29.9,40.1,10.5,-0.483,0.266,-0.357,0.19,0.368,-0.414,0.274,-0.366
2.6,3.2,3.2,2.1,2.8,4.3,1.1,1.4,4.1,14.7,9.6,41.8,66.3,0.548,0.305,0.432,-0.434,0.362,0.048,-0.123,0.197
2.6,4.8,4.1,2.0,4.3,1.6,4.1,3.3,3.6,53.2,51.2,30.4,25.7,-0.303,0.087,0.295,0.481,-0.109,-0.555,0.175,0.464
2.6,4.1,1.3,4.1,2.3,3.7,1.4,3.9,1.4,82.1,45.6,19.5,89.2,-0.426,0.06,0.089,0.556,-0.099,-0.006,-0.043,-0.679
2.6,3.8,3.6,4.3,3.6,4.5,2.7,2.3,1.8,18.9,24.9,28.4,22.0,-0.615,0.155,-0.29,-0.024,0.296,0.425,-0.342,-0.345
2.6,3.3,4.2,1.4,4.7,2.2,4.9,4.9,4.7,45.1,88.1,76.9,23.9,-0.349,0.26,-0.082,-0.379,-0.144,-0.258,0.098,0.735
2.6,1.0,3.5,1.5,1.5,4.5,1.5,2.8,3.4,12.4,56.0,6.7,85.4,-0.414,0.092,0.319,0.515,0.075,-0.143,-0.196,-0.603
2.6,4.1,3.0,3.9,1.1,3.3,3.7,4.6,2.1,96.8,54.0,56.3,88.1,-0.432,-0.229,-0.04,0.084,-0.227,0.637,-0.496,-0.07
2.6,1.6,3.7,3.4,2.3,3.2,1.2,2.8,3.5,41.0,95.9,32.1,18.4,-0.32,0.612,-0.415,-0.223,0.419,0.114,-0.087,0.301
2.6,1.0,2.7,3.8,1.2,3.0,1.3,1.1,4.6,35.6,96.2,58.4,99.2,-0.093,0.502,-0.436,0.083,0.468,0.104,-0.426,0.325
2.6,4.9,1.2,1.1,4.2,1.4,2.0,2.9,2.9,58.7,88.8,82.6,95.0,-0.013,-0.202,-0.196,-0.548,-0.244,-0.31,0.386,0.529
2.6,3.8,1.6,2.1,5.0,4.4,4.9,4.9,4.1,44.1,75.2,54.3,49.8,-0.48,0.067,0.311,-0.539,0.094,0.213,-0.216,0.496
2.6,1.3,1.4,4.9,1.1,4.2,3.6,2.5,3.5,13.6,83.9,78.5,9.6,-0.116,0.669,-0.281,-0.257,-0.373,-0.324,-0.157,-0.33
2.6,2.2,2.9,1.8,3.7,1.7,4.3,4.1,3.3,30.9,24.7,54.0,77.9,-0.532,0.365,-0.519,-0.124,-0.239,-0.068,-0.417,-0.211
2.6,3.0,1.3,2.1,3.0,2.1,3.6,2.0,3.5,13.0,33.9,9.3,56.3,-0.427,0.353,-0.507,-0.124,0.108,0.268,-0.42,-0.382
2.6,3.4,1.7,1.4,5.0,5.0,4.2,3.1,2.2,36.2,9.9,99.6,22.5,-0.653,0.124,-0.237,-0.492,0.242,0.243,-0.265,0.231
2.6,4.1,3.7,2.4,2.5,3.9,3.8,1.5,4.9,26.5,33.4,13.9,39.7,-0.406,0.181,-0.537,0.211,0.438,0.136,-0.48,-0.134
2.6,3.8,1.4,1.5,1.8,1.6,4.7,1.4,4.4,87.9,77.4,26.5,51.5,-0.514,0.016,0.298,-0.59,-0.207,-0.056,0.009,-0.472
2.6,1.1,3.4,4.9,2.9,2.7,3.8,4.2,2.5,20.4,93.2,57.2,67.1,-0.417,0.436,-0.389,-0.299,-0.298,-0.412,-0.298,-0.15
2.6,3.9,4.5,4.6,4.8,1.2,4.8,1.4,2.5,78.8,39.3,72.5,71.0,-0.721,0.519,0.065,0.243,-0.015,0.055,-0.125,-0.323
2.6,1.1,4.3,2.3,2.3,1.1,3.2,3.0,3.0,5.4,80.2,36.9,80.6,0.123,0.822,0.281,-0.149,-0.276,0.144,0.267,0.036
2.6,1.5,1.6,3.2,4.6,2.2,3.8,3.6,2.0,98.5,54.5,53.6,80.2,0.074,-0.12,0.275,-0.152,-0.653,0.336,-0.483,-0.224
2.6,3.7,3.2,2.5,4.8,2.7,2.1,2.3,4.0,51.6,33.1,44.7,28.0,-0.544,0.08,-0.401,0.282,-0.003,-0.574,-0.086,0.323
2.6,2.9,3.6,2.7,1.1,1.1,4.7,2.6,3.5,21.0,77.4,47.2,5.8,-0.441,-0.014,0.118,-0.687,0.058,0.202,-0.079,-0.498
2.6,3.7,2.8,2.1,3.9,1.9,2.4,2.1,2.4,60.0,74.7,26.8,96.4,-0.543,0.222,0.214,-0.374,-0.395,-0.213,0.355,0.348
2.6,2.1,1.1,2.7,4.6,4.9,4.1,2.5,3.5,55.7,45.0,79.0,82.0,0.104,0.627,0.114,0.24,0.368,0.322,0.306,0.4
2.6,4.4,2.3,4.5,1.1,1.4,4.2,1.3,4.8,58.8,73.0,24.9,82.7,-0.756,0.052,0.118,-0.443,0.066,-0.311,0.24,0.179
2.6,3.8,3.6,1.2,3.2,2.7,1.2,2.4,2.1,66.9,53.0,19.9,43.9,-0.546,0.112,0.492,0.464,-0.055,-0.066,0.249,0.38
2.6,2.9,4.4,4.1,3.7,4.4,4.0,2.1,3.4,97.4,96.9,35.2,88.8,-0.653,0.33,-0.242,-0.173,0.272,0.271,-0.383,-0.237
2.6,1.8,1.8,2.9,2.3,1.4,3.3,1.8,4.9,24.0,97.5,79.8,69.4,-0.103,0.205,-0.438,-0.347,-0.373,-0.191,-0.655,-0.086
2.6,2.9,3.4,4.6,1.6,2.0,4.2,1.8,3.5,64.8,12.1,13.3,14.0,-0.444,0.483,-0.25,-0.421,-0.133,-0.248,0.482,0.098
2.6,2.1,3.1,1.2,4.4,2.0,4.7,4.6,2.9,85.5,32.8,12.2,43.6,-0.534,0.414,-0.319,0.091,0.104,0.438,-0.176,-0.431
2.6,3.6,2.1,4.2,2.8,1.4,4.2,4.0,4.1,97.0,99.6,85.9,57.1,-0.297,0.271,-0.373,-0.196,-0.152,0.023,-0.76,-0.172
2.6,4.1,3.3,1.6,4.8,1.4,1.1,2.2,3.4,5.7,71.1,22.9,76.5,-0.526,0.195,0.358,-0.164,-0.256,-0.404,-0.141,-0.517
2.6,3.8,2.7,1.1,4.5,1.6,3.0,1.8,4.9,8.5,72.1,55.0,30.6,-0.4,0.077,0.522,-0.23,0.171,0.457,-0.14,-0.482
2.6,3.6,3.6,4.7,2.9,4.0,2.5,4.4,1.1,82.1,11.6,73.1,77.8,-0.486,0.378,-0.271,-0.332,-0.23,-0.409,-0.087,-0.437
2.6,4.0,2.4,4.4,4.1,2.6,1.1,4.0,1.9,97.4,75.5,44.6,49.8,-0.314,0.558,0.236,-0.196,0.076,0.222,-0.578,-0.282
2.6,1.6,2.1,3.9,2.5,2.4,4.1,4.9,4.8,70.2,71.5,96.9,96.1,-0.397,0.6,0.299,-0.116,-0.468,-0.113,0.341,-0.091
2.6,1.3,1.8,3.4,2.5,3.3,3.1,1.3,2.7,68.9,30.8,60.6,11.1,-0.583,0.399,-0.173,0.188,-0.148,-0.562,0.242,-0.149
2.6,4.9,4.2,4.1,1.6,1.3,2.3,4.8,2.9,10.9,16.0,14.0,44.3,-0.578,-0.088,-0.269,-0.223,-0.082,0.308,-0.118,-0.642
2.6,3.7,2.9,3.3,3.5,3.7,3.0,4.0,4.6,6.5,55.5,81.8,69.2,0.39,0.23,-0.473,-0.009,0.385,-0.423,0.117,-0.385
2.6,1.1,4.0,1.6,4.9,2.9,4.3,4.6,4.0,60.9,94.9,40.9,46.6,-0.535,0.322,-0.359,-0.225,0.236,0.043,0.374,0.452
2.6,1.8,1.4,2.3,4.9,3.0,4.7,3.0,4.3,64.0,53.1,54.4,10.3,-0.18,0.242,0.547,0.368,0.054,-0.116,0.555,0.358
2.6,1.6,3.6,3.9,1.5,4.5,3.0,3.4,3.4,80.3,65.2,98.5,33.2,-0.022,0.619,0.591,-0.06,-0.163,0.313,0.073,-0.317
2.6,3.4,2.3,4.0,4.3,2.7,2.1,1.5,3.1,47.2,55.4,91.4,64.3,-0.384,0.436,0.305,0.51,-0.095,0.197,0.204,0.449
2.6,1.0,4.8,4.2,2.2,3.2,4.6,2.3,3.9,59.6,70.6,61.6,13.3,-0.151,0.439,0.442,-0.431,0.384,-0.278,0.399,0.011
2.6,2.2,1.6,4.8,1.7,4.6,1.7,3.8,4.7,67.4,6.1,81.8,90.7,-0.396,0.51,-0.302,-0.412,-0.261,-0.299,0.382,0.009
2.6,2.2,3.8,4.6,4.9,4.3,1.8,3.3,3.7,25.8,25.0,17.9,12.2,-0.687,0.136,-0.196,0.187,0.163,0.596,-0.194,0.071
2.6,2.0,1.6,1.3,4.2,1.6,2.7,2.5,3.4,29.6,37.1,30.0,57.7,-0.437,0.098,-0.348,0.577,0.416,-0.291,-0.193,0.176
2.6,3.5,3.6,4.4,3.0,2.4,2.4,1.9,3.6,36.8,4.8,43.1,15.5,-0.551,0.373,-0.077,-0.427,0.219,0.456,-0.224,0.236
2.6,2.4,1.2,3.2,2.9,1.2,3.8,4.8,2.7,88.7,71.9,71.2,12.8,-0.635,0.246,0.217,-0.124,0.268,0.001,-0.323,-0.521
2.6,2.3,2.1,2.0,1.4,2.2,1.0,3.1,1.8,25.1,8.1,21.0,25.4,0.142,-0.231,0.059,-0.576,-0.273,0.661,-0.239,-0.071
2.6,3.9,2.0,4.7,4.1,1.8,4.4,3.5,3.8,13.8,94.4,71.8,55.8,-0.468,0.187,-0.058,-0.258,-0.047,-0.316,-0.422,-0.618
2.6,1.3,2.4,1.5,2.3,2.0,2.6,4.6,1.1,82.5,7.8,89.3,51.4,0.024,0.284,0.055,-0.457,-0.194,-0.001,0.446,-0.667
2.6,1.0,2.6,4.8,2.8,4.5,4.6,1.8,1.6,38.5,95.9,77.4,71.1,-0.084,0.608,-0.204,0.312,-0.385,0.284,-0.33,0.342
2.6,2.5,3.5,4.4,2.6,1.2,3.6,3.7,1.7,32.6,76.6,21.5,16.5,-0.201,0.235,0.178,-0.522,-0.371,0.255,-0.526,0.32
2.6,1.0,2.2,3.2,4.8,4.0,2.4,2.9,1.6,99.8,20.3,46.5,31.9,-0.083,0.28,-0.504,-0.1,0.529,-0.014,-0.589,-0.022
2.6,3.3,4.6,1.7,2.4,1.3,4.9,3.3,1.2,89.8,22.1,31.9,35.6,-0.375,0.236,-0.435,-0.173,0.318,0.425,-0.355,-0.401
2.6,3.5,4.7,1.5,3.5,5.0,2.3,4.0,1.3,89.8,97.2,4.4,92.7,-0.25,-0.229,-0.458,-0.167,-0.499,0.283,-0.024,0.499
2.6,1.8,4.0,2.9,2.6,3.4,1.2,2.2,4.9,54.4,46.1,82.0,95.0,0.1,0.622,-0.174,0.332,0.465,0.132,0.431,0.06
2.6,2.8,1.4,2.1,4.1,1.8,4.0,3.8,3.4,94.8,17.2,85.5,14.8,0.247,-0.182,-0.086,0.017,-0.51,0.297,-0.563,-0.441
2.6,3.5,2.1,1.9,2.6,2.4,4.1,1.1,3.7,59.1,14.4,36.2,28.0,0.577,0.196,-0.415,-0.118,0.186,0.089,0.595,0.069
2.6,1.4,3.6,2.5,4.8,1.0,4.9,3.8,1.0,60.2,39.0,43.3,6.3,-0.336,0.246,0.016,0.561,0.017,-0.565,0.165,0.382
2.6,4.1,4.4,3.6,1.9,4.5,3.9,2.2,4.8,94.0,99.8,87.4,60.7,-0.222,0.357,-0.753,-0.217,0.045,-0.048,-0.4,-0.076
2.6,2.5,2.1,2.8,2.3,1.5,3.6,3.0,2.2,38.0,35.3,32.4,59.2,-0.585,0.167,-0.159,0.467,0.217,-0.228,-0.143,0.501
2.6,3.7,1.8,2.5,3.0,3.9,1.5,4.0,2.1,89.3,87.5,59.7,42.9,0.413,0.488,-0.336,-0.177,0.589,0.016,-0.087,-0.168
2.6,4.5,2.8,4.7,3.9,1.2,2.8,1.1,2.8,4.6,87.6,24.3,48.8,-0.517,0.165,-0.243,-0.445,0.109,0.313,0.137,-0.556
2.6,3.8,3.3,4.3,2.7,3.9,4.1,3.9,1.9,66.5,32.0,49.6,99.8,-0.684,0.421,-0.187,0.101,-0.302,-0.377,0.213,0.118
2.6,1.4,1.8,5.0,4.8,2.6,3.7,2.2,4.2,68.0,43.4,66.1,59.8,-0.337,0.426,0.23,0.56,0.17,0.393,0.325,-0.169
2.6,4.1,4.0,1.2,2.0,1.3,4.7,3.7,3.1,16.1,85.8,98.6,41.2,-0.331,0.1,-0.273,-0.596,-0.101,0.405,0.001,-0.499
2.6,1.5,1.1,4.3,2.3,3.7,4.6,1.4,3.7,86.1,21.2,50.0,34.1,-0.056,0.541,-0.496,-0.305,0.05,0.411,-0.164,-0.382
2.6,4.4,4.9,1.0,2.4,1.2,2.7,3.0,1.7,95.0,59.4,96.1,68.1,-0.445,0.016,0.543,0.163,-0.078,-0.561,0.035,-0.361
2.6,4.7,2.0,3.4,2.7,2.4,4.8,3.6,1.9,98.3,19.2,54.7,56.1,-0.452,-0.283,-0.053,-0.293,0.066,-0.567,-0.518,0.07
2.6,2.9,3.3,4.8,3.8,4.4,1.4,4.3,4.3,31.0,85.6,77.8,73.2,-0.192,0.428,-0.387,0.003,-0.467,0.09,-0.607,-0.082
2.6,4.7,3.0,4.0,2.7,2.7,3.9,2.6,3.7,91.4,96.3,21.8,81.3,-0.158,-0.368,-0.402,0.207,-0.522,0.428,-0.201,-0.28
2.6,2.6,3.5,3.3,4.6,1.7,1.9,5.0,2.4,25.5,25.4,35.1,30.4,-0.383,0.267,-0.51,0.031,0.504,-0.002,-0.506,-0.041
2.6,3.6,4.4,2.3,2.5,2.8,3.3,2.9,1.2,29.1,98.0,72.1,82.8,-0.278,0.113,-0.457,0.173,-0.434,0.034,-0.673,0.01
2.6,2.7,2.5,4.3,3.5,1.1,3.7,3.9,1.2,48.9,43.3,45.3,58.4,-0.288,0.578,0.161,0.114,-0.445,-0.209,0.037,0.532
2.6,4.6,1.2,1.3,3.8,4.7,2.2,4.6,2.6,22.1,56.3,65.6,74.4,0.078,-0.916,0.141,-0.187,-0.142,0.187,-0.083,0.012
2.6,2.7,4.1,4.3,4.3,1.0,2.1,3.1,1.3,95.7,30.5,85.5,76.1,-0.024,0.378,-0.801,0.255,-0.131,0.168,-0.152,0.141
2.6,3.1,1.9,1.6,3.6,2.2,2.2,4.6,2.8,60.9,33.4,40.7,98.9,-0.625,-0.121,-0.292,0.416,0.215,-0.504,-0.057,-0.088
2.6,4.9,3.4,4.2,1.0,1.1,3.1,3.2,1.6,78.7,45.5,74.5,10.4,0.073,0.052,0.019,0.402,-0.052,0.428,0.502,-0.593
2.6,3.6,4.2,2.4,4.6,1.4,3.5,3.6,2.9,95.5,40.5,13.7,57.6,-0.11,0.39,-0.315,0.412,0.582,0.246,-0.376,-0.056
2.6,2.2,1.1,3.5,2.3,4.9,1.6,1.7,4.3,27.0,9.4,85.0,95.3,-0.273,-0.392,0.114,-0.246,-0.003,0.702,-0.38,0.106
2.6,1.8,4.7,2.9,2.3,4.1,3.1,2.8,1.9,68.2,17.7,86.9,22.1,-0.345,0.527,-0.43,-0.221,-0.376,-0.093,0.454,-0.016
2.6,2.4,2.7,1.9,4.0,3.9,3.8,3.8,4.6,36.0,18.0,32.8,96.9,-0.442,0.332,-0.443,-0.217,0.449,0.193,-0.417,0.148
2.6,1.6,2.1,2.1,1.8,1.7,1.5,4.4,4.5,12.2,72.2,8.3,18.3,-0.522,0.51,0.229,-0.13,-0.071,-0.305,-0.383,-0.37
2.6,2.8,4.5,1.5,2.9,2.4,5.0,4.1,3.2,95.9,82.1,22.2,13.1,-0.066,0.182,-0.005,-0.64,-0.607,0.373,0.094,0.042
2.6,3.3,1.2,2.2,3.3,3.1,1.8,3.8,3.9,11.1,54.4,50.3,9.5,0.326,0.311,0.454,0.042,-0.559,-0.096,0.02,-0.497
2.6,2.7,3.8,4.9,1.1,3.4,4.5,1.5,3.0,8.2,62.2,36.9,17.2,-0.227,0.402,0.555,0.014,-0.562,-0.053,0.027,-0.386
2.6,1.3,4.9,3.2,3.5,1.5,3.4,4.0,1.3,76.8,18.5,76.3,75.6,-0.465,0.673,-0.227,-0.27,-0.157,-0.29,-0.086,-0.263
2.6,2.3,1.3,1.8,4.8,1.3,1.1,2.4,4.1,53.9,14.5,59.4,32.9,0.2,-0.113,-0.064,-0.604,-0.041,-0.612,0.098,0.409
2.6,4.5,3.2,3.7,2.3,4.4,3.4,3.3,1.8,48.8,99.1,98.6,85.4,-0.415,0.329,-0.533,-0.197,0.343,0.232,0.265,0.358
2.6,4.7,4.0,3.6,3.6,4.7,3.5,1.6,1.9,82.6,50.3,64.2,71.4,-0.448,0.583,0.29,0.418,-0.133,-0.256,-0.149,-0.261
2.6,3.0,4.8,3.8,4.1,4.6,1.5,4.3,2.1,61.8,16.0,34.4,98.8,0.191,-0.406,-0.456,0.08,0.316,0.02,0.438,-0.466
2.6,2.7,3.6,1.4,3.5,4.7,1.0,1.9,2.6,60.7,81.2,53.2,28.3,-0.16,-0.13,0.138,-0.879,0.253,-0.201,-0.125,-0.079
2.6,2.0,4.8,3.0,2.0,1.7,2.9,2.0,4.9,37.4,42.4,81.9,83.7,-0.495,0.486,-0.02,0.458,0.099,0.436,-0.159,0.264
2.6,3.3,2.3,4.5,2.1,3.6,1.2,3.0,4.5,60.3,53.6,82.2,63.2,-0.288,0.301,0.454,0.407,0.308,0.2,0.525,0.148
2.6,3.1,1.1,1.9,4.4,3.3,2.6,2.2,1.1,32.2,12.7,79.8,42.6,-0.62,-0.078,-0.047,-0.464,0.124,-0.42,-0.416,0.086
2.6,3.7,3.5,2.8,1.1,1.9,4.6,1.7,1.7,63.2,64.5,70.3,57.1,-0.608,0.209,0.301,0.013,0.306,0.315,0.502,0.175
2.6,1.7,3.7,4.4,4.0,4.4,2.7,4.5,3.1,50.6,13.4,43.4,60.5,-0.332,0.531,-0.222,-0.406,0.178,0.259,0.344,0.404
2.6,2.0,3.8,1.4,4.2,1.8,1.7,4.8,2.5,92.7,4.0,18.8,70.8,-0.294,0.55,0.077,-0.383,-0.393,-0.183,-0.333,-0.384
2.6,1.8,2.2,2.3,1.1,4.0,2.9,3.3,3.9,9.0,55.2,46.4,5.3,0.045,0.588,0.394,0.388,-0.385,-0.333,-0.081,-0.262
2.6,2.4,3.5,2.9,2.9,1.2,4.6,1.8,4.9,57.6,88.6,90.7,11.0,-0.402,0.37,-0.32,-0.49,-0.034,0.022,0.367,0.451
2.6,4.2,2.8,3.4,2.0,3.0,3.2,3.2,1.0,66.2,69.3,9.6,35.9,-0.725,0.413,0.253,-0.011,-0.201,-0.244,0.249,0.244
2.6,4.0,4.4,1.9,1.8,3.5,4.8,3.2,4.3,71.1,71.2,90.4,62.6,-0.459,-0.111,0.421,-0.607,-0.028,0.124,0.283,-0.316
2.6,2.0,3.1,1.6,5.0,4.5,4.3,4.4,1.6,12.6,31.8,17.1,25.6,-0.488,0.267,-0.336,0.244,0.17,0.497,-0.047,-0.479
2.6,3.7,4.8,4.4,2.4,2.1,1.1,1.2,2.2,49.8,50.2,90.0,95.9,-0.27,0.377,0.087,0.389,0.66,-0.141,0.251,0.279
2.6,2.7,4.2,3.0,3.2,1.2,4.2,2.5,2.9,20.9,40.2,53.6,67.9,-0.363,0.398,-0.176,0.414,-0.383,-0.259,-0.452,-0.277
2.6,1.5,2.6,1.2,4.1,4.4,3.6,2.9,4.6,71.1,39.3,4.7,49.4,-0.536,0.233,-0.047,0.601,0.043,0.455,0.17,0.174
